 frequency      v(net6)        v(net6)       
 1.0000000e+00 -4.6134607e-01 -1.8404450e-05 
 1.2589254e+00 -4.6134607e-01 -2.3169830e-05 
 1.5848932e+00 -4.6134607e-01 -2.9169088e-05 
 1.9952623e+00 -4.6134607e-01 -3.6721706e-05 
 2.5118864e+00 -4.6134607e-01 -4.6229889e-05 
 3.1622777e+00 -4.6134608e-01 -5.8199982e-05 
 3.9810717e+00 -4.6134608e-01 -7.3269435e-05 
 5.0118723e+00 -4.6134609e-01 -9.2240753e-05 
 6.3095734e+00 -4.6134610e-01 -1.1612423e-04 
 7.9432823e+00 -4.6134611e-01 -1.4619173e-04 
 1.0000000e+01 -4.6134614e-01 -1.8404448e-04 
 1.2589254e+01 -4.6134618e-01 -2.3169825e-04 
 1.5848932e+01 -4.6134624e-01 -2.9169078e-04 
 1.9952623e+01 -4.6134634e-01 -3.6721686e-04 
 2.5118864e+01 -4.6134651e-01 -4.6229848e-04 
 3.1622777e+01 -4.6134676e-01 -5.8199900e-04 
 3.9810717e+01 -4.6134717e-01 -7.3269273e-04 
 5.0118723e+01 -4.6134781e-01 -9.2240429e-04 
 6.3095734e+01 -4.6134882e-01 -1.1612358e-03 
 7.9432823e+01 -4.6135043e-01 -1.4619045e-03 
 1.0000000e+02 -4.6135299e-01 -1.8404191e-03 
 1.2589254e+02 -4.6135703e-01 -2.3169312e-03 
 1.5848932e+02 -4.6136345e-01 -2.9168055e-03 
 1.9952623e+02 -4.6137361e-01 -3.6719644e-03 
 2.5118864e+02 -4.6138972e-01 -4.6225775e-03 
 3.1622777e+02 -4.6141524e-01 -5.8191774e-03 
 3.9810717e+02 -4.6145569e-01 -7.3253060e-03 
 5.0118723e+02 -4.6151978e-01 -9.2208083e-03 
 6.3095734e+02 -4.6162133e-01 -1.1605905e-02 
 7.9432823e+02 -4.6178218e-01 -1.4606174e-02 
 1.0000000e+03 -4.6203690e-01 -1.8378525e-02 
 1.2589254e+03 -4.6244006e-01 -2.3118144e-02 
 1.5848932e+03 -4.6307767e-01 -2.9066095e-02 
 1.9952623e+03 -4.6408483e-01 -3.6516631e-02 
 2.5118864e+03 -4.6567261e-01 -4.5822040e-02 
 3.1622777e+03 -4.6816802e-01 -5.7390387e-02 
 3.9810717e+03 -4.7207102e-01 -7.1667098e-02 
 5.0118723e+03 -4.7812963e-01 -8.9083983e-02 
 6.3095734e+03 -4.8742504e-01 -1.0994905e-01 
 7.9432823e+03 -5.0143362e-01 -1.3424172e-01 
 1.0000000e+04 -5.2198602e-01 -1.6128734e-01 
 1.2589254e+04 -5.5098171e-01 -1.8934961e-01 
 1.5848932e+04 -5.8970865e-01 -2.1534285e-01 
 1.9952623e+04 -6.3781473e-01 -2.3507925e-01 
 2.5118864e+04 -6.9246575e-01 -2.4442928e-01 
 3.1622777e+04 -7.4859489e-01 -2.4110664e-01 
 3.9810717e+04 -8.0057585e-01 -2.2587344e-01 
 5.0118723e+04 -8.4430093e-01 -2.0211492e-01 
 6.3095734e+04 -8.7820215e-01 -1.7417033e-01 
 7.9432823e+04 -9.0286230e-01 -1.4574923e-01 
 1.0000000e+05 -9.1997931e-01 -1.1923644e-01 
 1.2589254e+05 -9.3147622e-01 -9.5764804e-02 
 1.5848932e+05 -9.3902636e-01 -7.5598887e-02 
 1.9952623e+05 -9.4390773e-01 -5.8512776e-02 
 2.5118864e+05 -9.4702568e-01 -4.4052861e-02 
 3.1622777e+05 -9.4899198e-01 -3.1688444e-02 
 3.9810717e+05 -9.5020608e-01 -2.0884694e-02 
 5.0118723e+05 -9.5092000e-01 -1.1129714e-02 
 6.3095734e+05 -9.5128380e-01 -1.9368689e-03 
 7.9432823e+05 -9.5137445e-01  7.1654260e-03 
 1.0000000e+06 -9.5121107e-01  1.6650101e-02 
 1.2589254e+06 -9.5075860e-01  2.7010830e-02 
 1.5848932e+06 -9.4992042e-01  3.8782710e-02 
 1.9952623e+06 -9.4851850e-01  5.2562607e-02 
 2.5118864e+06 -9.4625748e-01  6.9026386e-02 
 3.1622777e+06 -9.4266745e-01  8.8937228e-02 
 3.9810717e+06 -9.3701832e-01  1.1313329e-01 
 5.0118723e+06 -9.2820077e-01  1.4247248e-01 
 6.3095734e+06 -9.1457797e-01  1.7769600e-01 
 7.9432823e+06 -8.9384151e-01  2.1915293e-01 
 1.0000000e+07 -8.6296840e-01  2.6632331e-01 
 1.2589254e+07 -8.1848085e-01  3.1713344e-01 
 1.5848932e+07 -7.5729919e-01  3.6725838e-01 
 1.9952623e+07 -6.7834634e-01  4.0998167e-01 
 2.5118864e+07 -5.8442254e-01  4.3743837e-01 
 3.1622777e+07 -4.8292328e-01  4.4346909e-01 
 3.9810717e+07 -3.8401205e-01  4.2664547e-01 
 5.0118723e+07 -2.9686718e-01  3.9106086e-01 
 6.3095734e+07 -2.2664065e-01  3.4416677e-01 
 7.9432823e+07 -1.7398671e-01  2.9354182e-01 
 1.0000000e+08 -1.3657563e-01  2.4477835e-01 
 1.2589254e+08 -1.1095641e-01  2.0102151e-01 
 1.5848932e+08 -9.3795946e-02  1.6348122e-01 
 1.9952623e+08 -8.2406601e-02  1.3216661e-01 
 2.5118864e+08 -7.4832719e-02  1.0647895e-01 
 3.1622777e+08 -6.9747063e-02  8.5595323e-02 
 3.9810717e+08 -6.6293924e-02  6.8686317e-02 
 5.0118723e+08 -6.3936350e-02  5.5019892e-02 
 6.3095734e+08 -6.2333286e-02  4.3990597e-02 
 7.9432823e+08 -6.1257441e-02  3.5108461e-02 
 1.0000000e+09 -6.0549082e-02  2.7975711e-02 
 1.2589254e+09 -6.0092472e-02  2.2265906e-02 
 1.5848932e+09 -5.9803701e-02  1.7708940e-02 
 1.9952623e+09 -5.9623514e-02  1.4081060e-02 
 2.5118864e+09 -5.9511809e-02  1.1198121e-02 
 3.1622777e+09 -5.9442610e-02  8.9102520e-03 
 3.9810717e+09 -5.9399627e-02  7.0968109e-03 
 5.0118723e+09 -5.9372819e-02  5.6614931e-03 
 6.3095734e+09 -5.9356022e-02  4.5278528e-03 
 7.9432823e+09 -5.9345440e-02  3.6354588e-03 
 1.0000000e+10 -5.9338714e-02  2.9367376e-03 
