 time           v(net6)        time           v(net1)        time           i(vdd)        
 0.0000000e+00  5.9978969e-01  0.0000000e+00  6.0000000e-01  0.0000000e+00 -1.8429601e-04 
 1.0000000e-13  5.9979071e-01  1.0000000e-13  6.0020000e-01  1.0000000e-13 -1.7247042e-04 
 2.0000000e-13  5.9979172e-01  2.0000000e-13  6.0040000e-01  2.0000000e-13 -1.7064571e-04 
 4.0000000e-13  5.9979374e-01  4.0000000e-13  6.0080000e-01  4.0000000e-13 -1.6976923e-04 
 8.0000000e-13  5.9979777e-01  8.0000000e-13  6.0160000e-01  8.0000000e-13 -1.7010658e-04 
 1.6000000e-12  5.9980580e-01  1.6000000e-12  6.0320000e-01  1.6000000e-12 -1.6952611e-04 
 3.2000000e-12  5.9982175e-01  3.2000000e-12  6.0640000e-01  3.2000000e-12 -1.6938177e-04 
 6.4000000e-12  5.9985325e-01  6.4000000e-12  6.1280000e-01  6.4000000e-12 -1.6818560e-04 
 1.0000000e-11  5.9988802e-01  1.0000000e-11  6.2000000e-01  1.0000000e-11 -1.6746607e-04 
 1.0640000e-11  5.9988763e-01  1.0640000e-11  6.2000000e-01  1.0640000e-11 -1.8107311e-04 
 1.1920000e-11  5.9988688e-01  1.1920000e-11  6.2000000e-01  1.1920000e-11 -1.8192958e-04 
 1.4480000e-11  5.9988540e-01  1.4480000e-11  6.2000000e-01  1.4480000e-11 -1.8109495e-04 
 1.9600000e-11  5.9988245e-01  1.9600000e-11  6.2000000e-01  1.9600000e-11 -1.8181145e-04 
 2.9840000e-11  5.9987658e-01  2.9840000e-11  6.2000000e-01  2.9840000e-11 -1.8093832e-04 
 5.0320000e-11  5.9986499e-01  5.0320000e-11  6.2000000e-01  5.0320000e-11 -1.8147666e-04 
 9.1280000e-11  5.9984224e-01  9.1280000e-11  6.2000000e-01  9.1280000e-11 -1.8034279e-04 
 1.7320000e-10  5.9979763e-01  1.7320000e-10  6.2000000e-01  1.7320000e-10 -1.8047421e-04 
 2.7320000e-10  5.9974362e-01  2.7320000e-10  6.2000000e-01  2.7320000e-10 -1.7920465e-04 
 3.7320000e-10  5.9968932e-01  3.7320000e-10  6.2000000e-01  3.7320000e-10 -1.7962410e-04 
 4.7320000e-10  5.9963468e-01  4.7320000e-10  6.2000000e-01  4.7320000e-10 -1.7870513e-04 
 5.7320000e-10  5.9958004e-01  5.7320000e-10  6.2000000e-01  5.7320000e-10 -1.7939092e-04 
 6.7320000e-10  5.9952591e-01  6.7320000e-10  6.2000000e-01  6.7320000e-10 -1.7868076e-04 
 7.7320000e-10  5.9947280e-01  7.7320000e-10  6.2000000e-01  7.7320000e-10 -1.7952424e-04 
 8.7320000e-10  5.9942117e-01  8.7320000e-10  6.2000000e-01  8.7320000e-10 -1.7893965e-04 
 9.7320000e-10  5.9937140e-01  9.7320000e-10  6.2000000e-01  9.7320000e-10 -1.7987718e-04 
 1.0732000e-09  5.9932383e-01  1.0732000e-09  6.2000000e-01  1.0732000e-09 -1.7936903e-04 
 1.1732000e-09  5.9927871e-01  1.1732000e-09  6.2000000e-01  1.1732000e-09 -1.8036245e-04 
 1.2732000e-09  5.9923625e-01  1.2732000e-09  6.2000000e-01  1.2732000e-09 -1.7990090e-04 
 1.3732000e-09  5.9919662e-01  1.3732000e-09  6.2000000e-01  1.3732000e-09 -1.8092679e-04 
 1.4732000e-09  5.9915993e-01  1.4732000e-09  6.2000000e-01  1.4732000e-09 -1.8049332e-04 
 1.5732000e-09  5.9912628e-01  1.5732000e-09  6.2000000e-01  1.5732000e-09 -1.8153701e-04 
 1.6732000e-09  5.9909575e-01  1.6732000e-09  6.2000000e-01  1.6732000e-09 -1.8111994e-04 
 1.7732000e-09  5.9906837e-01  1.7732000e-09  6.2000000e-01  1.7732000e-09 -1.8217208e-04 
 1.8732000e-09  5.9904418e-01  1.8732000e-09  6.2000000e-01  1.8732000e-09 -1.8176390e-04 
 1.9732000e-09  5.9902320e-01  1.9732000e-09  6.2000000e-01  1.9732000e-09 -1.8281848e-04 
 2.0732000e-09  5.9900545e-01  2.0732000e-09  6.2000000e-01  2.0732000e-09 -1.8241434e-04 
 2.1732000e-09  5.9899091e-01  2.1732000e-09  6.2000000e-01  2.1732000e-09 -1.8346743e-04 
 2.2732000e-09  5.9897958e-01  2.2732000e-09  6.2000000e-01  2.2732000e-09 -1.8306413e-04 
 2.3732000e-09  5.9897146e-01  2.3732000e-09  6.2000000e-01  2.3732000e-09 -1.8411316e-04 
 2.4732000e-09  5.9896651e-01  2.4732000e-09  6.2000000e-01  2.4732000e-09 -1.8370858e-04 
 2.5732000e-09  5.9896473e-01  2.5732000e-09  6.2000000e-01  2.5732000e-09 -1.8475184e-04 
 2.6732000e-09  5.9896608e-01  2.6732000e-09  6.2000000e-01  2.6732000e-09 -1.8434458e-04 
 2.7732000e-09  5.9897053e-01  2.7732000e-09  6.2000000e-01  2.7732000e-09 -1.8538090e-04 
 2.8732000e-09  5.9897808e-01  2.8732000e-09  6.2000000e-01  2.8732000e-09 -1.8497001e-04 
 2.9732000e-09  5.9898866e-01  2.9732000e-09  6.2000000e-01  2.9732000e-09 -1.8599863e-04 
 3.0732000e-09  5.9900226e-01  3.0732000e-09  6.2000000e-01  3.0732000e-09 -1.8558343e-04 
 3.1732000e-09  5.9901885e-01  3.1732000e-09  6.2000000e-01  3.1732000e-09 -1.8660380e-04 
 3.2732000e-09  5.9903838e-01  3.2732000e-09  6.2000000e-01  3.2732000e-09 -1.8618385e-04 
 3.3732000e-09  5.9906082e-01  3.3732000e-09  6.2000000e-01  3.3732000e-09 -1.8719560e-04 
 3.4732000e-09  5.9908615e-01  3.4732000e-09  6.2000000e-01  3.4732000e-09 -1.8677057e-04 
 3.5732000e-09  5.9911430e-01  3.5732000e-09  6.2000000e-01  3.5732000e-09 -1.8777344e-04 
 3.6732000e-09  5.9914527e-01  3.6732000e-09  6.2000000e-01  3.6732000e-09 -1.8734309e-04 
 3.7732000e-09  5.9917899e-01  3.7732000e-09  6.2000000e-01  3.7732000e-09 -1.8833688e-04 
 3.8732000e-09  5.9921545e-01  3.8732000e-09  6.2000000e-01  3.8732000e-09 -1.8790105e-04 
 3.9732000e-09  5.9925459e-01  3.9732000e-09  6.2000000e-01  3.9732000e-09 -1.8888564e-04 
 4.0732000e-09  5.9929638e-01  4.0732000e-09  6.2000000e-01  4.0732000e-09 -1.8844419e-04 
 4.1732000e-09  5.9934078e-01  4.1732000e-09  6.2000000e-01  4.1732000e-09 -1.8941948e-04 
 4.2732000e-09  5.9938776e-01  4.2732000e-09  6.2000000e-01  4.2732000e-09 -1.8897233e-04 
 4.3732000e-09  5.9943726e-01  4.3732000e-09  6.2000000e-01  4.3732000e-09 -1.8993824e-04 
 4.4732000e-09  5.9948926e-01  4.4732000e-09  6.2000000e-01  4.4732000e-09 -1.8948532e-04 
 4.5732000e-09  5.9954372e-01  4.5732000e-09  6.2000000e-01  4.5732000e-09 -1.9044182e-04 
 4.6732000e-09  5.9960059e-01  4.6732000e-09  6.2000000e-01  4.6732000e-09 -1.8998308e-04 
 4.7732000e-09  5.9965983e-01  4.7732000e-09  6.2000000e-01  4.7732000e-09 -1.9093013e-04 
 4.8732000e-09  5.9972142e-01  4.8732000e-09  6.2000000e-01  4.8732000e-09 -1.9046554e-04 
 4.9732000e-09  5.9978530e-01  4.9732000e-09  6.2000000e-01  4.9732000e-09 -1.9140314e-04 
 5.0732000e-09  5.9985144e-01  5.0732000e-09  6.2000000e-01  5.0732000e-09 -1.9093268e-04 
 5.1732000e-09  5.9991979e-01  5.1732000e-09  6.2000000e-01  5.1732000e-09 -1.9186082e-04 
 5.2732000e-09  5.9999033e-01  5.2732000e-09  6.2000000e-01  5.2732000e-09 -1.9138448e-04 
 5.3732000e-09  6.0006300e-01  5.3732000e-09  6.2000000e-01  5.3732000e-09 -1.9230318e-04 
 5.4732000e-09  6.0013777e-01  5.4732000e-09  6.2000000e-01  5.4732000e-09 -1.9182097e-04 
 5.5732000e-09  6.0021461e-01  5.5732000e-09  6.2000000e-01  5.5732000e-09 -1.9273024e-04 
 5.6732000e-09  6.0029347e-01  5.6732000e-09  6.2000000e-01  5.6732000e-09 -1.9224218e-04 
 5.7732000e-09  6.0037430e-01  5.7732000e-09  6.2000000e-01  5.7732000e-09 -1.9314204e-04 
 5.8732000e-09  6.0045709e-01  5.8732000e-09  6.2000000e-01  5.8732000e-09 -1.9264815e-04 
 5.9732000e-09  6.0054178e-01  5.9732000e-09  6.2000000e-01  5.9732000e-09 -1.9353866e-04 
 6.0732000e-09  6.0062834e-01  6.0732000e-09  6.2000000e-01  6.0732000e-09 -1.9303897e-04 
 6.1732000e-09  6.0071672e-01  6.1732000e-09  6.2000000e-01  6.1732000e-09 -1.9392016e-04 
 6.2732000e-09  6.0080689e-01  6.2732000e-09  6.2000000e-01  6.2732000e-09 -1.9341471e-04 
 6.3732000e-09  6.0089882e-01  6.3732000e-09  6.2000000e-01  6.3732000e-09 -1.9428665e-04 
 6.4732000e-09  6.0099246e-01  6.4732000e-09  6.2000000e-01  6.4732000e-09 -1.9377548e-04 
 6.5732000e-09  6.0108777e-01  6.5732000e-09  6.2000000e-01  6.5732000e-09 -1.9463822e-04 
 6.6732000e-09  6.0118472e-01  6.6732000e-09  6.2000000e-01  6.6732000e-09 -1.9412139e-04 
 6.7732000e-09  6.0128327e-01  6.7732000e-09  6.2000000e-01  6.7732000e-09 -1.9497499e-04 
 6.8732000e-09  6.0138339e-01  6.8732000e-09  6.2000000e-01  6.8732000e-09 -1.9445256e-04 
 6.9732000e-09  6.0148503e-01  6.9732000e-09  6.2000000e-01  6.9732000e-09 -1.9529710e-04 
 7.0732000e-09  6.0158816e-01  7.0732000e-09  6.2000000e-01  7.0732000e-09 -1.9476914e-04 
 7.1732000e-09  6.0169273e-01  7.1732000e-09  6.2000000e-01  7.1732000e-09 -1.9560470e-04 
 7.2732000e-09  6.0179873e-01  7.2732000e-09  6.2000000e-01  7.2732000e-09 -1.9507126e-04 
 7.3732000e-09  6.0190610e-01  7.3732000e-09  6.2000000e-01  7.3732000e-09 -1.9589793e-04 
 7.4732000e-09  6.0201482e-01  7.4732000e-09  6.2000000e-01  7.4732000e-09 -1.9535911e-04 
 7.5732000e-09  6.0212484e-01  7.5732000e-09  6.2000000e-01  7.5732000e-09 -1.9617697e-04 
 7.6732000e-09  6.0223614e-01  7.6732000e-09  6.2000000e-01  7.6732000e-09 -1.9563284e-04 
 7.7732000e-09  6.0234866e-01  7.7732000e-09  6.2000000e-01  7.7732000e-09 -1.9644199e-04 
 7.8732000e-09  6.0246240e-01  7.8732000e-09  6.2000000e-01  7.8732000e-09 -1.9589263e-04 
 7.9732000e-09  6.0257729e-01  7.9732000e-09  6.2000000e-01  7.9732000e-09 -1.9669317e-04 
 8.0732000e-09  6.0269332e-01  8.0732000e-09  6.2000000e-01  8.0732000e-09 -1.9613868e-04 
 8.1732000e-09  6.0281044e-01  8.1732000e-09  6.2000000e-01  8.1732000e-09 -1.9693070e-04 
 8.2732000e-09  6.0292863e-01  8.2732000e-09  6.2000000e-01  8.2732000e-09 -1.9637117e-04 
 8.3732000e-09  6.0304784e-01  8.3732000e-09  6.2000000e-01  8.3732000e-09 -1.9715479e-04 
 8.4732000e-09  6.0316805e-01  8.4732000e-09  6.2000000e-01  8.4732000e-09 -1.9659032e-04 
 8.5732000e-09  6.0328922e-01  8.5732000e-09  6.2000000e-01  8.5732000e-09 -1.9736564e-04 
 8.6732000e-09  6.0341133e-01  8.6732000e-09  6.2000000e-01  8.6732000e-09 -1.9679633e-04 
 8.7732000e-09  6.0353432e-01  8.7732000e-09  6.2000000e-01  8.7732000e-09 -1.9756347e-04 
 8.8732000e-09  6.0365819e-01  8.8732000e-09  6.2000000e-01  8.8732000e-09 -1.9698942e-04 
 8.9732000e-09  6.0378288e-01  8.9732000e-09  6.2000000e-01  8.9732000e-09 -1.9774849e-04 
 9.0732000e-09  6.0390837e-01  9.0732000e-09  6.2000000e-01  9.0732000e-09 -1.9716981e-04 
 9.1732000e-09  6.0403463e-01  9.1732000e-09  6.2000000e-01  9.1732000e-09 -1.9792093e-04 
 9.2732000e-09  6.0416163e-01  9.2732000e-09  6.2000000e-01  9.2732000e-09 -1.9733774e-04 
 9.3732000e-09  6.0428934e-01  9.3732000e-09  6.2000000e-01  9.3732000e-09 -1.9808102e-04 
 9.4732000e-09  6.0441772e-01  9.4732000e-09  6.2000000e-01  9.4732000e-09 -1.9749342e-04 
 9.5732000e-09  6.0454675e-01  9.5732000e-09  6.2000000e-01  9.5732000e-09 -1.9822900e-04 
 9.6732000e-09  6.0467640e-01  9.6732000e-09  6.2000000e-01  9.6732000e-09 -1.9763710e-04 
 9.7732000e-09  6.0480662e-01  9.7732000e-09  6.2000000e-01  9.7732000e-09 -1.9836510e-04 
 9.8732000e-09  6.0493741e-01  9.8732000e-09  6.2000000e-01  9.8732000e-09 -1.9776902e-04 
 9.9732000e-09  6.0506873e-01  9.9732000e-09  6.2000000e-01  9.9732000e-09 -1.9848957e-04 
 1.0073200e-08  6.0520054e-01  1.0073200e-08  6.2000000e-01  1.0073200e-08 -1.9788943e-04 
 1.0173200e-08  6.0533283e-01  1.0173200e-08  6.2000000e-01  1.0173200e-08 -1.9860264e-04 
 1.0273200e-08  6.0546556e-01  1.0273200e-08  6.2000000e-01  1.0273200e-08 -1.9799855e-04 
 1.0373200e-08  6.0559870e-01  1.0373200e-08  6.2000000e-01  1.0373200e-08 -1.9870457e-04 
 1.0473200e-08  6.0573223e-01  1.0473200e-08  6.2000000e-01  1.0473200e-08 -1.9809666e-04 
 1.0573200e-08  6.0586612e-01  1.0573200e-08  6.2000000e-01  1.0573200e-08 -1.9879560e-04 
 1.0673200e-08  6.0600035e-01  1.0673200e-08  6.2000000e-01  1.0673200e-08 -1.9818398e-04 
 1.0773200e-08  6.0613488e-01  1.0773200e-08  6.2000000e-01  1.0773200e-08 -1.9887599e-04 
 1.0873200e-08  6.0626970e-01  1.0873200e-08  6.2000000e-01  1.0873200e-08 -1.9826079e-04 
 1.0973200e-08  6.0640477e-01  1.0973200e-08  6.2000000e-01  1.0973200e-08 -1.9894599e-04 
 1.1073200e-08  6.0654008e-01  1.1073200e-08  6.2000000e-01  1.1073200e-08 -1.9832732e-04 
 1.1173200e-08  6.0667559e-01  1.1173200e-08  6.2000000e-01  1.1173200e-08 -1.9900584e-04 
 1.1273200e-08  6.0681128e-01  1.1273200e-08  6.2000000e-01  1.1273200e-08 -1.9838384e-04 
 1.1373200e-08  6.0694712e-01  1.1373200e-08  6.2000000e-01  1.1373200e-08 -1.9905581e-04 
 1.1473200e-08  6.0708310e-01  1.1473200e-08  6.2000000e-01  1.1473200e-08 -1.9843059e-04 
 1.1573200e-08  6.0721919e-01  1.1573200e-08  6.2000000e-01  1.1573200e-08 -1.9909615e-04 
 1.1673200e-08  6.0735536e-01  1.1673200e-08  6.2000000e-01  1.1673200e-08 -1.9846783e-04 
 1.1773200e-08  6.0749160e-01  1.1773200e-08  6.2000000e-01  1.1773200e-08 -1.9912711e-04 
 1.1873200e-08  6.0762787e-01  1.1873200e-08  6.2000000e-01  1.1873200e-08 -1.9849582e-04 
 1.1973200e-08  6.0776416e-01  1.1973200e-08  6.2000000e-01  1.1973200e-08 -1.9914895e-04 
 1.2073200e-08  6.0790045e-01  1.2073200e-08  6.2000000e-01  1.2073200e-08 -1.9851480e-04 
 1.2173200e-08  6.0803671e-01  1.2173200e-08  6.2000000e-01  1.2173200e-08 -1.9916192e-04 
 1.2273200e-08  6.0817292e-01  1.2273200e-08  6.2000000e-01  1.2273200e-08 -1.9852504e-04 
 1.2373200e-08  6.0830906e-01  1.2373200e-08  6.2000000e-01  1.2373200e-08 -1.9916626e-04 
 1.2473200e-08  6.0844512e-01  1.2473200e-08  6.2000000e-01  1.2473200e-08 -1.9852677e-04 
 1.2573200e-08  6.0858106e-01  1.2573200e-08  6.2000000e-01  1.2573200e-08 -1.9916224e-04 
 1.2673200e-08  6.0871687e-01  1.2673200e-08  6.2000000e-01  1.2673200e-08 -1.9852026e-04 
 1.2773200e-08  6.0885253e-01  1.2773200e-08  6.2000000e-01  1.2773200e-08 -1.9915010e-04 
 1.2873200e-08  6.0898803e-01  1.2873200e-08  6.2000000e-01  1.2873200e-08 -1.9850575e-04 
 1.2973200e-08  6.0912333e-01  1.2973200e-08  6.2000000e-01  1.2973200e-08 -1.9913009e-04 
 1.3073200e-08  6.0925842e-01  1.3073200e-08  6.2000000e-01  1.3073200e-08 -1.9848349e-04 
 1.3173200e-08  6.0939329e-01  1.3173200e-08  6.2000000e-01  1.3173200e-08 -1.9910246e-04 
 1.3273200e-08  6.0952791e-01  1.3273200e-08  6.2000000e-01  1.3273200e-08 -1.9845373e-04 
 1.3373200e-08  6.0966227e-01  1.3373200e-08  6.2000000e-01  1.3373200e-08 -1.9906745e-04 
 1.3473200e-08  6.0979636e-01  1.3473200e-08  6.2000000e-01  1.3473200e-08 -1.9841670e-04 
 1.3573200e-08  6.0993014e-01  1.3573200e-08  6.2000000e-01  1.3573200e-08 -1.9902530e-04 
 1.3673200e-08  6.1006361e-01  1.3673200e-08  6.2000000e-01  1.3673200e-08 -1.9837265e-04 
 1.3773200e-08  6.1019674e-01  1.3773200e-08  6.2000000e-01  1.3773200e-08 -1.9897626e-04 
 1.3873200e-08  6.1032954e-01  1.3873200e-08  6.2000000e-01  1.3873200e-08 -1.9832182e-04 
 1.3973200e-08  6.1046196e-01  1.3973200e-08  6.2000000e-01  1.3973200e-08 -1.9892056e-04 
 1.4073200e-08  6.1059401e-01  1.4073200e-08  6.2000000e-01  1.4073200e-08 -1.9826445e-04 
 1.4173200e-08  6.1072566e-01  1.4173200e-08  6.2000000e-01  1.4173200e-08 -1.9885843e-04 
 1.4273200e-08  6.1085691e-01  1.4273200e-08  6.2000000e-01  1.4273200e-08 -1.9820076e-04 
 1.4373200e-08  6.1098772e-01  1.4373200e-08  6.2000000e-01  1.4373200e-08 -1.9879012e-04 
 1.4473200e-08  6.1111810e-01  1.4473200e-08  6.2000000e-01  1.4473200e-08 -1.9813099e-04 
 1.4573200e-08  6.1124802e-01  1.4573200e-08  6.2000000e-01  1.4573200e-08 -1.9871584e-04 
 1.4673200e-08  6.1137748e-01  1.4673200e-08  6.2000000e-01  1.4673200e-08 -1.9805537e-04 
 1.4773200e-08  6.1150646e-01  1.4773200e-08  6.2000000e-01  1.4773200e-08 -1.9863583e-04 
 1.4873200e-08  6.1163494e-01  1.4873200e-08  6.2000000e-01  1.4873200e-08 -1.9797413e-04 
 1.4973200e-08  6.1176291e-01  1.4973200e-08  6.2000000e-01  1.4973200e-08 -1.9855030e-04 
 1.5073200e-08  6.1189037e-01  1.5073200e-08  6.2000000e-01  1.5073200e-08 -1.9788747e-04 
 1.5173200e-08  6.1201728e-01  1.5173200e-08  6.2000000e-01  1.5173200e-08 -1.9845948e-04 
 1.5273200e-08  6.1214366e-01  1.5273200e-08  6.2000000e-01  1.5273200e-08 -1.9779563e-04 
 1.5373200e-08  6.1226947e-01  1.5373200e-08  6.2000000e-01  1.5373200e-08 -1.9836359e-04 
 1.5473200e-08  6.1239472e-01  1.5473200e-08  6.2000000e-01  1.5473200e-08 -1.9769881e-04 
 1.5573200e-08  6.1251939e-01  1.5573200e-08  6.2000000e-01  1.5573200e-08 -1.9826283e-04 
 1.5673200e-08  6.1264346e-01  1.5673200e-08  6.2000000e-01  1.5673200e-08 -1.9759724e-04 
 1.5773200e-08  6.1276693e-01  1.5773200e-08  6.2000000e-01  1.5773200e-08 -1.9815743e-04 
 1.5873200e-08  6.1288979e-01  1.5873200e-08  6.2000000e-01  1.5873200e-08 -1.9749111e-04 
 1.5973200e-08  6.1301202e-01  1.5973200e-08  6.2000000e-01  1.5973200e-08 -1.9804757e-04 
 1.6073200e-08  6.1313362e-01  1.6073200e-08  6.2000000e-01  1.6073200e-08 -1.9738063e-04 
 1.6173200e-08  6.1325457e-01  1.6173200e-08  6.2000000e-01  1.6173200e-08 -1.9793348e-04 
 1.6273200e-08  6.1337487e-01  1.6273200e-08  6.2000000e-01  1.6273200e-08 -1.9726601e-04 
 1.6373200e-08  6.1349451e-01  1.6373200e-08  6.2000000e-01  1.6373200e-08 -1.9781534e-04 
 1.6473200e-08  6.1361347e-01  1.6473200e-08  6.2000000e-01  1.6473200e-08 -1.9714743e-04 
 1.6573200e-08  6.1373176e-01  1.6573200e-08  6.2000000e-01  1.6573200e-08 -1.9769335e-04 
 1.6673200e-08  6.1384935e-01  1.6673200e-08  6.2000000e-01  1.6673200e-08 -1.9702510e-04 
 1.6773200e-08  6.1396624e-01  1.6773200e-08  6.2000000e-01  1.6773200e-08 -1.9756771e-04 
 1.6873200e-08  6.1408243e-01  1.6873200e-08  6.2000000e-01  1.6873200e-08 -1.9689921e-04 
 1.6973200e-08  6.1419790e-01  1.6973200e-08  6.2000000e-01  1.6973200e-08 -1.9743860e-04 
 1.7073200e-08  6.1431265e-01  1.7073200e-08  6.2000000e-01  1.7073200e-08 -1.9676993e-04 
 1.7173200e-08  6.1442667e-01  1.7173200e-08  6.2000000e-01  1.7173200e-08 -1.9730621e-04 
 1.7273200e-08  6.1453996e-01  1.7273200e-08  6.2000000e-01  1.7273200e-08 -1.9663746e-04 
 1.7373200e-08  6.1465250e-01  1.7373200e-08  6.2000000e-01  1.7373200e-08 -1.9717071e-04 
 1.7473200e-08  6.1476429e-01  1.7473200e-08  6.2000000e-01  1.7473200e-08 -1.9650197e-04 
 1.7573200e-08  6.1487532e-01  1.7573200e-08  6.2000000e-01  1.7573200e-08 -1.9703229e-04 
 1.7673200e-08  6.1498558e-01  1.7673200e-08  6.2000000e-01  1.7673200e-08 -1.9636364e-04 
 1.7773200e-08  6.1509508e-01  1.7773200e-08  6.2000000e-01  1.7773200e-08 -1.9689112e-04 
 1.7873200e-08  6.1520380e-01  1.7873200e-08  6.2000000e-01  1.7873200e-08 -1.9622264e-04 
 1.7973200e-08  6.1531174e-01  1.7973200e-08  6.2000000e-01  1.7973200e-08 -1.9674736e-04 
 1.8073200e-08  6.1541889e-01  1.8073200e-08  6.2000000e-01  1.8073200e-08 -1.9607913e-04 
 1.8173200e-08  6.1552525e-01  1.8173200e-08  6.2000000e-01  1.8173200e-08 -1.9660119e-04 
 1.8273200e-08  6.1563081e-01  1.8273200e-08  6.2000000e-01  1.8273200e-08 -1.9593329e-04 
 1.8373200e-08  6.1573557e-01  1.8373200e-08  6.2000000e-01  1.8373200e-08 -1.9645276e-04 
 1.8473200e-08  6.1583952e-01  1.8473200e-08  6.2000000e-01  1.8473200e-08 -1.9578526e-04 
 1.8573200e-08  6.1594266e-01  1.8573200e-08  6.2000000e-01  1.8573200e-08 -1.9630223e-04 
 1.8673200e-08  6.1604498e-01  1.8673200e-08  6.2000000e-01  1.8673200e-08 -1.9563521e-04 
 1.8773200e-08  6.1614648e-01  1.8773200e-08  6.2000000e-01  1.8773200e-08 -1.9614977e-04 
 1.8873200e-08  6.1624716e-01  1.8873200e-08  6.2000000e-01  1.8873200e-08 -1.9548329e-04 
 1.8973200e-08  6.1634701e-01  1.8973200e-08  6.2000000e-01  1.8973200e-08 -1.9599551e-04 
 1.9073200e-08  6.1644603e-01  1.9073200e-08  6.2000000e-01  1.9073200e-08 -1.9532964e-04 
 1.9173200e-08  6.1654421e-01  1.9173200e-08  6.2000000e-01  1.9173200e-08 -1.9583960e-04 
 1.9273200e-08  6.1664156e-01  1.9273200e-08  6.2000000e-01  1.9273200e-08 -1.9517442e-04 
 1.9373200e-08  6.1673806e-01  1.9373200e-08  6.2000000e-01  1.9373200e-08 -1.9568220e-04 
 1.9473200e-08  6.1683372e-01  1.9473200e-08  6.2000000e-01  1.9473200e-08 -1.9501777e-04 
 1.9573200e-08  6.1692853e-01  1.9573200e-08  6.2000000e-01  1.9573200e-08 -1.9552343e-04 
 1.9673200e-08  6.1702249e-01  1.9673200e-08  6.2000000e-01  1.9673200e-08 -1.9485981e-04 
 1.9773200e-08  6.1711560e-01  1.9773200e-08  6.2000000e-01  1.9773200e-08 -1.9536343e-04 
 1.9873200e-08  6.1720786e-01  1.9873200e-08  6.2000000e-01  1.9873200e-08 -1.9470069e-04 
 1.9973200e-08  6.1729926e-01  1.9973200e-08  6.2000000e-01  1.9973200e-08 -1.9520234e-04 
 2.0073200e-08  6.1738981e-01  2.0073200e-08  6.2000000e-01  2.0073200e-08 -1.9454054e-04 
 2.0173200e-08  6.1747949e-01  2.0173200e-08  6.2000000e-01  2.0173200e-08 -1.9504029e-04 
 2.0273200e-08  6.1756831e-01  2.0273200e-08  6.2000000e-01  2.0273200e-08 -1.9437948e-04 
