 time           v(net6)        time           v(net1)        time           i(vdd)        
 0.0000000e+00  6.0026340e-01  0.0000000e+00  6.0000000e-01  0.0000000e+00 -1.7052073e-04 
 1.0000000e-13  6.0026441e-01  1.0000000e-13  6.0020000e-01  1.0000000e-13 -1.5776834e-04 
 2.0000000e-13  6.0026540e-01  2.0000000e-13  6.0040000e-01  2.0000000e-13 -1.5568732e-04 
 4.0000000e-13  6.0026739e-01  4.0000000e-13  6.0080000e-01  4.0000000e-13 -1.5468688e-04 
 8.0000000e-13  6.0027135e-01  8.0000000e-13  6.0160000e-01  8.0000000e-13 -1.5512928e-04 
 1.6000000e-12  6.0027926e-01  1.6000000e-12  6.0320000e-01  1.6000000e-12 -1.5455333e-04 
 3.2000000e-12  6.0029499e-01  3.2000000e-12  6.0640000e-01  3.2000000e-12 -1.5458023e-04 
 6.4000000e-12  6.0032612e-01  6.4000000e-12  6.1280000e-01  6.4000000e-12 -1.5358130e-04 
 1.0000000e-11  6.0036060e-01  1.0000000e-11  6.2000000e-01  1.0000000e-11 -1.5317976e-04 
 1.0640000e-11  6.0036028e-01  1.0640000e-11  6.2000000e-01  1.0640000e-11 -1.6798339e-04 
 1.1920000e-11  6.0035967e-01  1.1920000e-11  6.2000000e-01  1.1920000e-11 -1.6898143e-04 
 1.4480000e-11  6.0035848e-01  1.4480000e-11  6.2000000e-01  1.4480000e-11 -1.6803689e-04 
 1.9600000e-11  6.0035608e-01  1.9600000e-11  6.2000000e-01  1.9600000e-11 -1.6889809e-04 
 2.9840000e-11  6.0035132e-01  2.9840000e-11  6.2000000e-01  2.9840000e-11 -1.6796062e-04 
 5.0320000e-11  6.0034192e-01  5.0320000e-11  6.2000000e-01  5.0320000e-11 -1.6870930e-04 
 9.1280000e-11  6.0032351e-01  9.1280000e-11  6.2000000e-01  9.1280000e-11 -1.6762926e-04 
 1.7320000e-10  6.0028792e-01  1.7320000e-10  6.2000000e-01  1.7320000e-10 -1.6812816e-04 
 2.7320000e-10  6.0024607e-01  2.7320000e-10  6.2000000e-01  2.7320000e-10 -1.6694065e-04 
 3.7320000e-10  6.0020533e-01  3.7320000e-10  6.2000000e-01  3.7320000e-10 -1.6757593e-04 
 4.7320000e-10  6.0016540e-01  4.7320000e-10  6.2000000e-01  4.7320000e-10 -1.6658181e-04 
 5.7320000e-10  6.0012618e-01  5.7320000e-10  6.2000000e-01  5.7320000e-10 -1.6737200e-04 
 6.7320000e-10  6.0008774e-01  6.7320000e-10  6.2000000e-01  6.7320000e-10 -1.6650859e-04 
 7.7320000e-10  6.0005020e-01  7.7320000e-10  6.2000000e-01  7.7320000e-10 -1.6740151e-04 
 8.7320000e-10  6.0001373e-01  8.7320000e-10  6.2000000e-01  8.7320000e-10 -1.6662598e-04 
 9.7320000e-10  5.9997851e-01  9.7320000e-10  6.2000000e-01  9.7320000e-10 -1.6758641e-04 
 1.0732000e-09  5.9994471e-01  1.0732000e-09  6.2000000e-01  1.0732000e-09 -1.6686984e-04 
 1.1732000e-09  5.9991248e-01  1.1732000e-09  6.2000000e-01  1.1732000e-09 -1.6787405e-04 
 1.2732000e-09  5.9988195e-01  1.2732000e-09  6.2000000e-01  1.2732000e-09 -1.6719695e-04 
 1.3732000e-09  5.9985324e-01  1.3732000e-09  6.2000000e-01  1.3732000e-09 -1.6822892e-04 
 1.4732000e-09  5.9982644e-01  1.4732000e-09  6.2000000e-01  1.4732000e-09 -1.6757806e-04 
 1.5732000e-09  5.9980164e-01  1.5732000e-09  6.2000000e-01  1.5732000e-09 -1.6862688e-04 
 1.6732000e-09  5.9977891e-01  1.6732000e-09  6.2000000e-01  1.6732000e-09 -1.6799320e-04 
 1.7732000e-09  5.9975827e-01  1.7732000e-09  6.2000000e-01  1.7732000e-09 -1.6905137e-04 
 1.8732000e-09  5.9973979e-01  1.8732000e-09  6.2000000e-01  1.8732000e-09 -1.6842864e-04 
 1.9732000e-09  5.9972349e-01  1.9732000e-09  6.2000000e-01  1.9732000e-09 -1.6949098e-04 
 2.0732000e-09  5.9970937e-01  2.0732000e-09  6.2000000e-01  2.0732000e-09 -1.6887486e-04 
 2.1732000e-09  5.9969746e-01  2.1732000e-09  6.2000000e-01  2.1732000e-09 -1.6993776e-04 
 2.2732000e-09  5.9968777e-01  2.2732000e-09  6.2000000e-01  2.2732000e-09 -1.6932522e-04 
 2.3732000e-09  5.9968028e-01  2.3732000e-09  6.2000000e-01  2.3732000e-09 -1.7038617e-04 
 2.4732000e-09  5.9967500e-01  2.4732000e-09  6.2000000e-01  2.4732000e-09 -1.6977509e-04 
 2.5732000e-09  5.9967190e-01  2.5732000e-09  6.2000000e-01  2.5732000e-09 -1.7083231e-04 
 2.6732000e-09  5.9967100e-01  2.6732000e-09  6.2000000e-01  2.6732000e-09 -1.7022119e-04 
 2.7732000e-09  5.9967225e-01  2.7732000e-09  6.2000000e-01  2.7732000e-09 -1.7127345e-04 
 2.8732000e-09  5.9967567e-01  2.8732000e-09  6.2000000e-01  2.8732000e-09 -1.7066126e-04 
 2.9732000e-09  5.9968120e-01  2.9732000e-09  6.2000000e-01  2.9732000e-09 -1.7170768e-04 
 3.0732000e-09  5.9968885e-01  3.0732000e-09  6.2000000e-01  3.0732000e-09 -1.7109367e-04 
 3.1732000e-09  5.9969858e-01  3.1732000e-09  6.2000000e-01  3.1732000e-09 -1.7213366e-04 
 3.2732000e-09  5.9971038e-01  3.2732000e-09  6.2000000e-01  3.2732000e-09 -1.7151731e-04 
 3.3732000e-09  5.9972422e-01  3.3732000e-09  6.2000000e-01  3.3732000e-09 -1.7255045e-04 
 3.4732000e-09  5.9974007e-01  3.4732000e-09  6.2000000e-01  3.4732000e-09 -1.7193141e-04 
 3.5732000e-09  5.9975791e-01  3.5732000e-09  6.2000000e-01  3.5732000e-09 -1.7295742e-04 
 3.6732000e-09  5.9977771e-01  3.6732000e-09  6.2000000e-01  3.6732000e-09 -1.7233544e-04 
 3.7732000e-09  5.9979944e-01  3.7732000e-09  6.2000000e-01  3.7732000e-09 -1.7335412e-04 
 3.8732000e-09  5.9982308e-01  3.8732000e-09  6.2000000e-01  3.8732000e-09 -1.7272904e-04 
 3.9732000e-09  5.9984859e-01  3.9732000e-09  6.2000000e-01  3.9732000e-09 -1.7374028e-04 
 4.0732000e-09  5.9987597e-01  4.0732000e-09  6.2000000e-01  4.0732000e-09 -1.7311199e-04 
 4.1732000e-09  5.9990516e-01  4.1732000e-09  6.2000000e-01  4.1732000e-09 -1.7411572e-04 
 4.2732000e-09  5.9993616e-01  4.2732000e-09  6.2000000e-01  4.2732000e-09 -1.7348416e-04 
 4.3732000e-09  5.9996892e-01  4.3732000e-09  6.2000000e-01  4.3732000e-09 -1.7448035e-04 
 4.4732000e-09  6.0000342e-01  4.4732000e-09  6.2000000e-01  4.4732000e-09 -1.7384548e-04 
 4.5732000e-09  6.0003963e-01  4.5732000e-09  6.2000000e-01  4.5732000e-09 -1.7483413e-04 
 4.6732000e-09  6.0007754e-01  4.6732000e-09  6.2000000e-01  4.6732000e-09 -1.7419596e-04 
 4.7732000e-09  6.0011709e-01  4.7732000e-09  6.2000000e-01  4.7732000e-09 -1.7517707e-04 
 4.8732000e-09  6.0015828e-01  4.8732000e-09  6.2000000e-01  4.8732000e-09 -1.7453561e-04 
 4.9732000e-09  6.0020107e-01  4.9732000e-09  6.2000000e-01  4.9732000e-09 -1.7550922e-04 
 5.0732000e-09  6.0024543e-01  5.0732000e-09  6.2000000e-01  5.0732000e-09 -1.7486448e-04 
 5.1732000e-09  6.0029134e-01  5.1732000e-09  6.2000000e-01  5.1732000e-09 -1.7583064e-04 
 5.2732000e-09  6.0033878e-01  5.2732000e-09  6.2000000e-01  5.2732000e-09 -1.7518266e-04 
 5.3732000e-09  6.0038770e-01  5.3732000e-09  6.2000000e-01  5.3732000e-09 -1.7614141e-04 
 5.4732000e-09  6.0043809e-01  5.4732000e-09  6.2000000e-01  5.4732000e-09 -1.7549024e-04 
 5.5732000e-09  6.0048991e-01  5.5732000e-09  6.2000000e-01  5.5732000e-09 -1.7644164e-04 
 5.6732000e-09  6.0054315e-01  5.6732000e-09  6.2000000e-01  5.6732000e-09 -1.7578733e-04 
 5.7732000e-09  6.0059778e-01  5.7732000e-09  6.2000000e-01  5.7732000e-09 -1.7673145e-04 
 5.8732000e-09  6.0065376e-01  5.8732000e-09  6.2000000e-01  5.8732000e-09 -1.7607404e-04 
 5.9732000e-09  6.0071108e-01  5.9732000e-09  6.2000000e-01  5.9732000e-09 -1.7701095e-04 
 6.0732000e-09  6.0076970e-01  6.0732000e-09  6.2000000e-01  6.0732000e-09 -1.7635051e-04 
 6.1732000e-09  6.0082960e-01  6.1732000e-09  6.2000000e-01  6.1732000e-09 -1.7728027e-04 
 6.2732000e-09  6.0089076e-01  6.2732000e-09  6.2000000e-01  6.2732000e-09 -1.7661686e-04 
 6.3732000e-09  6.0095315e-01  6.3732000e-09  6.2000000e-01  6.3732000e-09 -1.7753956e-04 
 6.4732000e-09  6.0101675e-01  6.4732000e-09  6.2000000e-01  6.4732000e-09 -1.7687324e-04 
 6.5732000e-09  6.0108152e-01  6.5732000e-09  6.2000000e-01  6.5732000e-09 -1.7778895e-04 
 6.6732000e-09  6.0114745e-01  6.6732000e-09  6.2000000e-01  6.6732000e-09 -1.7711979e-04 
 6.7732000e-09  6.0121451e-01  6.7732000e-09  6.2000000e-01  6.7732000e-09 -1.7802860e-04 
 6.8732000e-09  6.0128267e-01  6.8732000e-09  6.2000000e-01  6.8732000e-09 -1.7735667e-04 
 6.9732000e-09  6.0135192e-01  6.9732000e-09  6.2000000e-01  6.9732000e-09 -1.7825866e-04 
 7.0732000e-09  6.0142222e-01  7.0732000e-09  6.2000000e-01  7.0732000e-09 -1.7758403e-04 
 7.1732000e-09  6.0149355e-01  7.1732000e-09  6.2000000e-01  7.1732000e-09 -1.7847928e-04 
 7.2732000e-09  6.0156590e-01  7.2732000e-09  6.2000000e-01  7.2732000e-09 -1.7780203e-04 
 7.3732000e-09  6.0163923e-01  7.3732000e-09  6.2000000e-01  7.3732000e-09 -1.7869063e-04 
 7.4732000e-09  6.0171353e-01  7.4732000e-09  6.2000000e-01  7.4732000e-09 -1.7801082e-04 
 7.5732000e-09  6.0178876e-01  7.5732000e-09  6.2000000e-01  7.5732000e-09 -1.7889285e-04 
 7.6732000e-09  6.0186492e-01  7.6732000e-09  6.2000000e-01  7.6732000e-09 -1.7821057e-04 
 7.7732000e-09  6.0194196e-01  7.7732000e-09  6.2000000e-01  7.7732000e-09 -1.7908613e-04 
 7.8732000e-09  6.0201989e-01  7.8732000e-09  6.2000000e-01  7.8732000e-09 -1.7840144e-04 
 7.9732000e-09  6.0209866e-01  7.9732000e-09  6.2000000e-01  7.9732000e-09 -1.7927061e-04 
 8.0732000e-09  6.0217826e-01  8.0732000e-09  6.2000000e-01  8.0732000e-09 -1.7858360e-04 
 8.1732000e-09  6.0225866e-01  8.1732000e-09  6.2000000e-01  8.1732000e-09 -1.7944647e-04 
 8.2732000e-09  6.0233986e-01  8.2732000e-09  6.2000000e-01  8.2732000e-09 -1.7875721e-04 
 8.3732000e-09  6.0242181e-01  8.3732000e-09  6.2000000e-01  8.3732000e-09 -1.7961387e-04 
 8.4732000e-09  6.0250452e-01  8.4732000e-09  6.2000000e-01  8.4732000e-09 -1.7892245e-04 
 8.5732000e-09  6.0258794e-01  8.5732000e-09  6.2000000e-01  8.5732000e-09 -1.7977299e-04 
 8.6732000e-09  6.0267206e-01  8.6732000e-09  6.2000000e-01  8.6732000e-09 -1.7907948e-04 
 8.7732000e-09  6.0275687e-01  8.7732000e-09  6.2000000e-01  8.7732000e-09 -1.7992399e-04 
 8.8732000e-09  6.0284234e-01  8.8732000e-09  6.2000000e-01  8.8732000e-09 -1.7922846e-04 
 8.9732000e-09  6.0292845e-01  8.9732000e-09  6.2000000e-01  8.9732000e-09 -1.8006703e-04 
 9.0732000e-09  6.0301518e-01  9.0732000e-09  6.2000000e-01  9.0732000e-09 -1.7936958e-04 
 9.1732000e-09  6.0310251e-01  9.1732000e-09  6.2000000e-01  9.1732000e-09 -1.8020230e-04 
 9.2732000e-09  6.0319043e-01  9.2732000e-09  6.2000000e-01  9.2732000e-09 -1.7950299e-04 
 9.3732000e-09  6.0327891e-01  9.3732000e-09  6.2000000e-01  9.3732000e-09 -1.8032995e-04 
 9.4732000e-09  6.0336794e-01  9.4732000e-09  6.2000000e-01  9.4732000e-09 -1.7962887e-04 
 9.5732000e-09  6.0345749e-01  9.5732000e-09  6.2000000e-01  9.5732000e-09 -1.8045016e-04 
 9.6732000e-09  6.0354756e-01  9.6732000e-09  6.2000000e-01  9.6732000e-09 -1.7974738e-04 
 9.7732000e-09  6.0363811e-01  9.7732000e-09  6.2000000e-01  9.7732000e-09 -1.8056310e-04 
 9.8732000e-09  6.0372914e-01  9.8732000e-09  6.2000000e-01  9.8732000e-09 -1.7985869e-04 
 9.9732000e-09  6.0382062e-01  9.9732000e-09  6.2000000e-01  9.9732000e-09 -1.8066892e-04 
 1.0073200e-08  6.0391254e-01  1.0073200e-08  6.2000000e-01  1.0073200e-08 -1.7996297e-04 
 1.0173200e-08  6.0400488e-01  1.0173200e-08  6.2000000e-01  1.0173200e-08 -1.8076781e-04 
 1.0273200e-08  6.0409762e-01  1.0273200e-08  6.2000000e-01  1.0273200e-08 -1.8006039e-04 
 1.0373200e-08  6.0419075e-01  1.0373200e-08  6.2000000e-01  1.0373200e-08 -1.8085992e-04 
 1.0473200e-08  6.0428425e-01  1.0473200e-08  6.2000000e-01  1.0473200e-08 -1.8015111e-04 
 1.0573200e-08  6.0437810e-01  1.0573200e-08  6.2000000e-01  1.0573200e-08 -1.8094542e-04 
 1.0673200e-08  6.0447229e-01  1.0673200e-08  6.2000000e-01  1.0673200e-08 -1.8023530e-04 
 1.0773200e-08  6.0456680e-01  1.0773200e-08  6.2000000e-01  1.0773200e-08 -1.8102447e-04 
 1.0873200e-08  6.0466162e-01  1.0873200e-08  6.2000000e-01  1.0873200e-08 -1.8031311e-04 
 1.0973200e-08  6.0475672e-01  1.0973200e-08  6.2000000e-01  1.0973200e-08 -1.8109723e-04 
 1.1073200e-08  6.0485210e-01  1.1073200e-08  6.2000000e-01  1.1073200e-08 -1.8038471e-04 
 1.1173200e-08  6.0494774e-01  1.1173200e-08  6.2000000e-01  1.1173200e-08 -1.8116387e-04 
 1.1273200e-08  6.0504363e-01  1.1273200e-08  6.2000000e-01  1.1273200e-08 -1.8045026e-04 
 1.1373200e-08  6.0513974e-01  1.1373200e-08  6.2000000e-01  1.1373200e-08 -1.8122454e-04 
 1.1473200e-08  6.0523607e-01  1.1473200e-08  6.2000000e-01  1.1473200e-08 -1.8050992e-04 
 1.1573200e-08  6.0533260e-01  1.1573200e-08  6.2000000e-01  1.1573200e-08 -1.8127940e-04 
 1.1673200e-08  6.0542932e-01  1.1673200e-08  6.2000000e-01  1.1673200e-08 -1.8056384e-04 
 1.1773200e-08  6.0552621e-01  1.1773200e-08  6.2000000e-01  1.1773200e-08 -1.8132861e-04 
 1.1873200e-08  6.0562326e-01  1.1873200e-08  6.2000000e-01  1.1873200e-08 -1.8061218e-04 
 1.1973200e-08  6.0572045e-01  1.1973200e-08  6.2000000e-01  1.1973200e-08 -1.8137233e-04 
 1.2073200e-08  6.0581778e-01  1.2073200e-08  6.2000000e-01  1.2073200e-08 -1.8065509e-04 
 1.2173200e-08  6.0591523e-01  1.2173200e-08  6.2000000e-01  1.2173200e-08 -1.8141069e-04 
 1.2273200e-08  6.0601278e-01  1.2273200e-08  6.2000000e-01  1.2273200e-08 -1.8069272e-04 
 1.2373200e-08  6.0611043e-01  1.2373200e-08  6.2000000e-01  1.2373200e-08 -1.8144386e-04 
 1.2473200e-08  6.0620816e-01  1.2473200e-08  6.2000000e-01  1.2473200e-08 -1.8072523e-04 
 1.2573200e-08  6.0630595e-01  1.2573200e-08  6.2000000e-01  1.2573200e-08 -1.8147198e-04 
 1.2673200e-08  6.0640381e-01  1.2673200e-08  6.2000000e-01  1.2673200e-08 -1.8075275e-04 
 1.2773200e-08  6.0650170e-01  1.2773200e-08  6.2000000e-01  1.2773200e-08 -1.8149519e-04 
 1.2873200e-08  6.0659964e-01  1.2873200e-08  6.2000000e-01  1.2873200e-08 -1.8077544e-04 
 1.2973200e-08  6.0669759e-01  1.2973200e-08  6.2000000e-01  1.2973200e-08 -1.8151365e-04 
 1.3073200e-08  6.0679555e-01  1.3073200e-08  6.2000000e-01  1.3073200e-08 -1.8079343e-04 
 1.3173200e-08  6.0689351e-01  1.3173200e-08  6.2000000e-01  1.3173200e-08 -1.8152749e-04 
 1.3273200e-08  6.0699146e-01  1.3273200e-08  6.2000000e-01  1.3273200e-08 -1.8080688e-04 
 1.3373200e-08  6.0708938e-01  1.3373200e-08  6.2000000e-01  1.3373200e-08 -1.8153686e-04 
 1.3473200e-08  6.0718727e-01  1.3473200e-08  6.2000000e-01  1.3473200e-08 -1.8081591e-04 
 1.3573200e-08  6.0728512e-01  1.3573200e-08  6.2000000e-01  1.3573200e-08 -1.8154188e-04 
 1.3673200e-08  6.0738291e-01  1.3673200e-08  6.2000000e-01  1.3673200e-08 -1.8082066e-04 
 1.3773200e-08  6.0748063e-01  1.3773200e-08  6.2000000e-01  1.3773200e-08 -1.8154270e-04 
 1.3873200e-08  6.0757828e-01  1.3873200e-08  6.2000000e-01  1.3873200e-08 -1.8082127e-04 
 1.3973200e-08  6.0767584e-01  1.3973200e-08  6.2000000e-01  1.3973200e-08 -1.8153945e-04 
 1.4073200e-08  6.0777332e-01  1.4073200e-08  6.2000000e-01  1.4073200e-08 -1.8081787e-04 
 1.4173200e-08  6.0787068e-01  1.4173200e-08  6.2000000e-01  1.4173200e-08 -1.8153226e-04 
 1.4273200e-08  6.0796793e-01  1.4273200e-08  6.2000000e-01  1.4273200e-08 -1.8081059e-04 
 1.4373200e-08  6.0806506e-01  1.4373200e-08  6.2000000e-01  1.4373200e-08 -1.8152126e-04 
 1.4473200e-08  6.0816206e-01  1.4473200e-08  6.2000000e-01  1.4473200e-08 -1.8079956e-04 
 1.4573200e-08  6.0825891e-01  1.4573200e-08  6.2000000e-01  1.4573200e-08 -1.8150658e-04 
 1.4673200e-08  6.0835562e-01  1.4673200e-08  6.2000000e-01  1.4673200e-08 -1.8078490e-04 
 1.4773200e-08  6.0845217e-01  1.4773200e-08  6.2000000e-01  1.4773200e-08 -1.8148833e-04 
 1.4873200e-08  6.0854855e-01  1.4873200e-08  6.2000000e-01  1.4873200e-08 -1.8076673e-04 
 1.4973200e-08  6.0864476e-01  1.4973200e-08  6.2000000e-01  1.4973200e-08 -1.8146664e-04 
 1.5073200e-08  6.0874079e-01  1.5073200e-08  6.2000000e-01  1.5073200e-08 -1.8074518e-04 
 1.5173200e-08  6.0883662e-01  1.5173200e-08  6.2000000e-01  1.5173200e-08 -1.8144164e-04 
 1.5273200e-08  6.0893226e-01  1.5273200e-08  6.2000000e-01  1.5273200e-08 -1.8072036e-04 
 1.5373200e-08  6.0902769e-01  1.5373200e-08  6.2000000e-01  1.5373200e-08 -1.8141343e-04 
 1.5473200e-08  6.0912290e-01  1.5473200e-08  6.2000000e-01  1.5473200e-08 -1.8069240e-04 
 1.5573200e-08  6.0921790e-01  1.5573200e-08  6.2000000e-01  1.5573200e-08 -1.8138214e-04 
 1.5673200e-08  6.0931267e-01  1.5673200e-08  6.2000000e-01  1.5673200e-08 -1.8066140e-04 
 1.5773200e-08  6.0940720e-01  1.5773200e-08  6.2000000e-01  1.5773200e-08 -1.8134787e-04 
 1.5873200e-08  6.0950149e-01  1.5873200e-08  6.2000000e-01  1.5873200e-08 -1.8062747e-04 
 1.5973200e-08  6.0959553e-01  1.5973200e-08  6.2000000e-01  1.5973200e-08 -1.8131074e-04 
 1.6073200e-08  6.0968932e-01  1.6073200e-08  6.2000000e-01  1.6073200e-08 -1.8059073e-04 
 1.6173200e-08  6.0978284e-01  1.6173200e-08  6.2000000e-01  1.6173200e-08 -1.8127085e-04 
 1.6273200e-08  6.0987609e-01  1.6273200e-08  6.2000000e-01  1.6273200e-08 -1.8055128e-04 
 1.6373200e-08  6.0996907e-01  1.6373200e-08  6.2000000e-01  1.6373200e-08 -1.8122832e-04 
 1.6473200e-08  6.1006178e-01  1.6473200e-08  6.2000000e-01  1.6473200e-08 -1.8050923e-04 
 1.6573200e-08  6.1015419e-01  1.6573200e-08  6.2000000e-01  1.6573200e-08 -1.8118323e-04 
 1.6673200e-08  6.1024631e-01  1.6673200e-08  6.2000000e-01  1.6673200e-08 -1.8046468e-04 
 1.6773200e-08  6.1033813e-01  1.6773200e-08  6.2000000e-01  1.6773200e-08 -1.8113570e-04 
 1.6873200e-08  6.1042965e-01  1.6873200e-08  6.2000000e-01  1.6873200e-08 -1.8041773e-04 
 1.6973200e-08  6.1052086e-01  1.6973200e-08  6.2000000e-01  1.6973200e-08 -1.8108583e-04 
 1.7073200e-08  6.1061175e-01  1.7073200e-08  6.2000000e-01  1.7073200e-08 -1.8036848e-04 
 1.7173200e-08  6.1070233e-01  1.7173200e-08  6.2000000e-01  1.7173200e-08 -1.8103371e-04 
 1.7273200e-08  6.1079258e-01  1.7273200e-08  6.2000000e-01  1.7273200e-08 -1.8031702e-04 
 1.7373200e-08  6.1088250e-01  1.7373200e-08  6.2000000e-01  1.7373200e-08 -1.8097944e-04 
 1.7473200e-08  6.1097208e-01  1.7473200e-08  6.2000000e-01  1.7473200e-08 -1.8026345e-04 
 1.7573200e-08  6.1106133e-01  1.7573200e-08  6.2000000e-01  1.7573200e-08 -1.8092310e-04 
 1.7673200e-08  6.1115023e-01  1.7673200e-08  6.2000000e-01  1.7673200e-08 -1.8020786e-04 
 1.7773200e-08  6.1123878e-01  1.7773200e-08  6.2000000e-01  1.7773200e-08 -1.8086480e-04 
 1.7873200e-08  6.1132698e-01  1.7873200e-08  6.2000000e-01  1.7873200e-08 -1.8015034e-04 
 1.7973200e-08  6.1141482e-01  1.7973200e-08  6.2000000e-01  1.7973200e-08 -1.8080462e-04 
 1.8073200e-08  6.1150230e-01  1.8073200e-08  6.2000000e-01  1.8073200e-08 -1.8009098e-04 
 1.8173200e-08  6.1158942e-01  1.8173200e-08  6.2000000e-01  1.8173200e-08 -1.8074264e-04 
 1.8273200e-08  6.1167616e-01  1.8273200e-08  6.2000000e-01  1.8273200e-08 -1.8002987e-04 
 1.8373200e-08  6.1176253e-01  1.8373200e-08  6.2000000e-01  1.8373200e-08 -1.8067895e-04 
 1.8473200e-08  6.1184853e-01  1.8473200e-08  6.2000000e-01  1.8473200e-08 -1.7996707e-04 
 1.8573200e-08  6.1193414e-01  1.8573200e-08  6.2000000e-01  1.8573200e-08 -1.8061364e-04 
 1.8673200e-08  6.1201937e-01  1.8673200e-08  6.2000000e-01  1.8673200e-08 -1.7990269e-04 
 1.8773200e-08  6.1210421e-01  1.8773200e-08  6.2000000e-01  1.8773200e-08 -1.8054678e-04 
 1.8873200e-08  6.1218866e-01  1.8873200e-08  6.2000000e-01  1.8873200e-08 -1.7983680e-04 
 1.8973200e-08  6.1227271e-01  1.8973200e-08  6.2000000e-01  1.8973200e-08 -1.8047845e-04 
 1.9073200e-08  6.1235637e-01  1.9073200e-08  6.2000000e-01  1.9073200e-08 -1.7976947e-04 
 1.9173200e-08  6.1243962e-01  1.9173200e-08  6.2000000e-01  1.9173200e-08 -1.8040873e-04 
 1.9273200e-08  6.1252248e-01  1.9273200e-08  6.2000000e-01  1.9273200e-08 -1.7970079e-04 
 1.9373200e-08  6.1260492e-01  1.9373200e-08  6.2000000e-01  1.9373200e-08 -1.8033770e-04 
 1.9473200e-08  6.1268696e-01  1.9473200e-08  6.2000000e-01  1.9473200e-08 -1.7963082e-04 
 1.9573200e-08  6.1276858e-01  1.9573200e-08  6.2000000e-01  1.9573200e-08 -1.8026542e-04 
 1.9673200e-08  6.1284979e-01  1.9673200e-08  6.2000000e-01  1.9673200e-08 -1.7955963e-04 
 1.9773200e-08  6.1293058e-01  1.9773200e-08  6.2000000e-01  1.9773200e-08 -1.8019197e-04 
 1.9873200e-08  6.1301096e-01  1.9873200e-08  6.2000000e-01  1.9873200e-08 -1.7948731e-04 
 1.9973200e-08  6.1309090e-01  1.9973200e-08  6.2000000e-01  1.9973200e-08 -1.8011741e-04 
 2.0073200e-08  6.1317043e-01  2.0073200e-08  6.2000000e-01  2.0073200e-08 -1.7941391e-04 
 2.0173200e-08  6.1324953e-01  2.0173200e-08  6.2000000e-01  2.0173200e-08 -1.8004182e-04 
 2.0273200e-08  6.1332820e-01  2.0273200e-08  6.2000000e-01  2.0273200e-08 -1.7933950e-04 
