 time           v(net6)        time           v(net1)        time           i(vdd)        
 0.0000000e+00  6.0050222e-01  0.0000000e+00  6.0000000e-01  0.0000000e+00 -1.1713615e-04 
 1.0000000e-13  6.0050247e-01  1.0000000e-13  6.0020000e-01  1.0000000e-13 -1.1480124e-04 
 2.0000000e-13  6.0050271e-01  2.0000000e-13  6.0040000e-01  2.0000000e-13 -1.1448330e-04 
 4.0000000e-13  6.0050319e-01  4.0000000e-13  6.0080000e-01  4.0000000e-13 -1.1431934e-04 
 8.0000000e-13  6.0050416e-01  8.0000000e-13  6.0160000e-01  8.0000000e-13 -1.1435186e-04 
 1.6000000e-12  6.0050606e-01  1.6000000e-12  6.0320000e-01  1.6000000e-12 -1.1420696e-04 
 3.2000000e-12  6.0050981e-01  3.2000000e-12  6.0640000e-01  3.2000000e-12 -1.1408316e-04 
 6.4000000e-12  6.0051699e-01  6.4000000e-12  6.1280000e-01  6.4000000e-12 -1.1367921e-04 
 1.0000000e-11  6.0052457e-01  1.0000000e-11  6.2000000e-01  1.0000000e-11 -1.1331534e-04 
 1.0640000e-11  6.0052430e-01  1.0640000e-11  6.2000000e-01  1.0640000e-11 -1.1596302e-04 
 1.1920000e-11  6.0052375e-01  1.1920000e-11  6.2000000e-01  1.1920000e-11 -1.1609849e-04 
 1.4480000e-11  6.0052267e-01  1.4480000e-11  6.2000000e-01  1.4480000e-11 -1.1592661e-04 
 1.9600000e-11  6.0052051e-01  1.9600000e-11  6.2000000e-01  1.9600000e-11 -1.1599853e-04 
 2.9840000e-11  6.0051620e-01  2.9840000e-11  6.2000000e-01  2.9840000e-11 -1.1574891e-04 
 5.0320000e-11  6.0050760e-01  5.0320000e-11  6.2000000e-01  5.0320000e-11 -1.1566668e-04 
 9.1280000e-11  6.0049051e-01  9.1280000e-11  6.2000000e-01  9.1280000e-11 -1.1518417e-04 
 1.7320000e-10  6.0045658e-01  1.7320000e-10  6.2000000e-01  1.7320000e-10 -1.1480106e-04 
 2.7320000e-10  6.0041558e-01  2.7320000e-10  6.2000000e-01  2.7320000e-10 -1.1426300e-04 
 3.7320000e-10  6.0037505e-01  3.7320000e-10  6.2000000e-01  3.7320000e-10 -1.1412850e-04 
 4.7320000e-10  6.0033506e-01  4.7320000e-10  6.2000000e-01  4.7320000e-10 -1.1383376e-04 
 5.7320000e-10  6.0029572e-01  5.7320000e-10  6.2000000e-01  5.7320000e-10 -1.1386885e-04 
 6.7320000e-10  6.0025714e-01  6.7320000e-10  6.2000000e-01  6.7320000e-10 -1.1370187e-04 
 7.7320000e-10  6.0021942e-01  7.7320000e-10  6.2000000e-01  7.7320000e-10 -1.1383491e-04 
 8.7320000e-10  6.0018267e-01  8.7320000e-10  6.2000000e-01  8.7320000e-10 -1.1374534e-04 
 9.7320000e-10  6.0014700e-01  9.7320000e-10  6.2000000e-01  9.7320000e-10 -1.1393860e-04 
 1.0732000e-09  6.0011248e-01  1.0732000e-09  6.2000000e-01  1.0732000e-09 -1.1389716e-04 
 1.1732000e-09  6.0007921e-01  1.1732000e-09  6.2000000e-01  1.1732000e-09 -1.1412782e-04 
 1.2732000e-09  6.0004726e-01  1.2732000e-09  6.2000000e-01  1.2732000e-09 -1.1411651e-04 
 1.3732000e-09  6.0001666e-01  1.3732000e-09  6.2000000e-01  1.3732000e-09 -1.1437032e-04 
 1.4732000e-09  5.9998749e-01  1.4732000e-09  6.2000000e-01  1.4732000e-09 -1.1437782e-04 
 1.5732000e-09  5.9995977e-01  1.5732000e-09  6.2000000e-01  1.5732000e-09 -1.1464575e-04 
 1.6732000e-09  5.9993353e-01  1.6732000e-09  6.2000000e-01  1.6732000e-09 -1.1466486e-04 
 1.7732000e-09  5.9990881e-01  1.7732000e-09  6.2000000e-01  1.7732000e-09 -1.1494116e-04 
 1.8732000e-09  5.9988562e-01  1.8732000e-09  6.2000000e-01  1.8732000e-09 -1.1496727e-04 
 1.9732000e-09  5.9986398e-01  1.9732000e-09  6.2000000e-01  1.9732000e-09 -1.1524825e-04 
 2.0732000e-09  5.9984390e-01  2.0732000e-09  6.2000000e-01  2.0732000e-09 -1.1527840e-04 
 2.1732000e-09  5.9982538e-01  2.1732000e-09  6.2000000e-01  2.1732000e-09 -1.1556169e-04 
 2.2732000e-09  5.9980843e-01  2.2732000e-09  6.2000000e-01  2.2732000e-09 -1.1559396e-04 
 2.3732000e-09  5.9979305e-01  2.3732000e-09  6.2000000e-01  2.3732000e-09 -1.1587803e-04 
 2.4732000e-09  5.9977924e-01  2.4732000e-09  6.2000000e-01  2.4732000e-09 -1.1591119e-04 
 2.5732000e-09  5.9976701e-01  2.5732000e-09  6.2000000e-01  2.5732000e-09 -1.1619503e-04 
 2.6732000e-09  5.9975634e-01  2.6732000e-09  6.2000000e-01  2.6732000e-09 -1.1622829e-04 
 2.7732000e-09  5.9974723e-01  2.7732000e-09  6.2000000e-01  2.7732000e-09 -1.1651125e-04 
 2.8732000e-09  5.9973968e-01  2.8732000e-09  6.2000000e-01  2.8732000e-09 -1.1654405e-04 
 2.9732000e-09  5.9973368e-01  2.9732000e-09  6.2000000e-01  2.9732000e-09 -1.1682571e-04 
 3.0732000e-09  5.9972922e-01  3.0732000e-09  6.2000000e-01  3.0732000e-09 -1.1685770e-04 
 3.1732000e-09  5.9972630e-01  3.1732000e-09  6.2000000e-01  3.1732000e-09 -1.1713775e-04 
 3.2732000e-09  5.9972492e-01  3.2732000e-09  6.2000000e-01  3.2732000e-09 -1.1716870e-04 
 3.3732000e-09  5.9972505e-01  3.3732000e-09  6.2000000e-01  3.3732000e-09 -1.1744694e-04 
 3.4732000e-09  5.9972669e-01  3.4732000e-09  6.2000000e-01  3.4732000e-09 -1.1747666e-04 
 3.5732000e-09  5.9972984e-01  3.5732000e-09  6.2000000e-01  3.5732000e-09 -1.1775295e-04 
 3.6732000e-09  5.9973449e-01  3.6732000e-09  6.2000000e-01  3.6732000e-09 -1.1778131e-04 
 3.7732000e-09  5.9974061e-01  3.7732000e-09  6.2000000e-01  3.7732000e-09 -1.1805555e-04 
 3.8732000e-09  5.9974822e-01  3.8732000e-09  6.2000000e-01  3.8732000e-09 -1.1808246e-04 
 3.9732000e-09  5.9975729e-01  3.9732000e-09  6.2000000e-01  3.9732000e-09 -1.1835455e-04 
 4.0732000e-09  5.9976782e-01  4.0732000e-09  6.2000000e-01  4.0732000e-09 -1.1837994e-04 
 4.1732000e-09  5.9977979e-01  4.1732000e-09  6.2000000e-01  4.1732000e-09 -1.1864982e-04 
 4.2732000e-09  5.9979320e-01  4.2732000e-09  6.2000000e-01  4.2732000e-09 -1.1867362e-04 
 4.3732000e-09  5.9980804e-01  4.3732000e-09  6.2000000e-01  4.3732000e-09 -1.1894123e-04 
 4.4732000e-09  5.9982429e-01  4.4732000e-09  6.2000000e-01  4.4732000e-09 -1.1896339e-04 
 4.5732000e-09  5.9984195e-01  4.5732000e-09  6.2000000e-01  4.5732000e-09 -1.1922869e-04 
 4.6732000e-09  5.9986100e-01  4.6732000e-09  6.2000000e-01  4.6732000e-09 -1.1924915e-04 
 4.7732000e-09  5.9988143e-01  4.7732000e-09  6.2000000e-01  4.7732000e-09 -1.1951209e-04 
 4.8732000e-09  5.9990324e-01  4.8732000e-09  6.2000000e-01  4.8732000e-09 -1.1953082e-04 
 4.9732000e-09  5.9992641e-01  4.9732000e-09  6.2000000e-01  4.9732000e-09 -1.1979136e-04 
 5.0732000e-09  5.9995093e-01  5.0732000e-09  6.2000000e-01  5.0732000e-09 -1.1980831e-04 
 5.1732000e-09  5.9997679e-01  5.1732000e-09  6.2000000e-01  5.1732000e-09 -1.2006642e-04 
 5.2732000e-09  6.0000398e-01  5.2732000e-09  6.2000000e-01  5.2732000e-09 -1.2008156e-04 
 5.3732000e-09  6.0003249e-01  5.3732000e-09  6.2000000e-01  5.3732000e-09 -1.2033720e-04 
 5.4732000e-09  6.0006230e-01  5.4732000e-09  6.2000000e-01  5.4732000e-09 -1.2035050e-04 
 5.5732000e-09  6.0009341e-01  5.5732000e-09  6.2000000e-01  5.5732000e-09 -1.2060364e-04 
 5.6732000e-09  6.0012580e-01  5.6732000e-09  6.2000000e-01  5.6732000e-09 -1.2061506e-04 
 5.7732000e-09  6.0015947e-01  5.7732000e-09  6.2000000e-01  5.7732000e-09 -1.2086567e-04 
 5.8732000e-09  6.0019439e-01  5.8732000e-09  6.2000000e-01  5.8732000e-09 -1.2087518e-04 
 5.9732000e-09  6.0023056e-01  5.9732000e-09  6.2000000e-01  5.9732000e-09 -1.2112324e-04 
 6.0732000e-09  6.0026797e-01  6.0732000e-09  6.2000000e-01  6.0732000e-09 -1.2113082e-04 
 6.1732000e-09  6.0030661e-01  6.1732000e-09  6.2000000e-01  6.1732000e-09 -1.2137630e-04 
 6.2732000e-09  6.0034645e-01  6.2732000e-09  6.2000000e-01  6.2732000e-09 -1.2138192e-04 
 6.3732000e-09  6.0038750e-01  6.3732000e-09  6.2000000e-01  6.3732000e-09 -1.2162480e-04 
 6.4732000e-09  6.0042974e-01  6.4732000e-09  6.2000000e-01  6.4732000e-09 -1.2162844e-04 
 6.5732000e-09  6.0047316e-01  6.5732000e-09  6.2000000e-01  6.5732000e-09 -1.2186870e-04 
 6.6732000e-09  6.0051774e-01  6.6732000e-09  6.2000000e-01  6.6732000e-09 -1.2187033e-04 
 6.7732000e-09  6.0056348e-01  6.7732000e-09  6.2000000e-01  6.7732000e-09 -1.2210795e-04 
 6.8732000e-09  6.0061036e-01  6.8732000e-09  6.2000000e-01  6.8732000e-09 -1.2210755e-04 
 6.9732000e-09  6.0065836e-01  6.9732000e-09  6.2000000e-01  6.9732000e-09 -1.2234252e-04 
 7.0732000e-09  6.0070749e-01  7.0732000e-09  6.2000000e-01  7.0732000e-09 -1.2234008e-04 
 7.1732000e-09  6.0075772e-01  7.1732000e-09  6.2000000e-01  7.1732000e-09 -1.2257237e-04 
 7.2732000e-09  6.0080904e-01  7.2732000e-09  6.2000000e-01  7.2732000e-09 -1.2256787e-04 
 7.3732000e-09  6.0086144e-01  7.3732000e-09  6.2000000e-01  7.3732000e-09 -1.2279748e-04 
 7.4732000e-09  6.0091491e-01  7.4732000e-09  6.2000000e-01  7.4732000e-09 -1.2279090e-04 
 7.5732000e-09  6.0096944e-01  7.5732000e-09  6.2000000e-01  7.5732000e-09 -1.2301781e-04 
 7.6732000e-09  6.0102501e-01  7.6732000e-09  6.2000000e-01  7.6732000e-09 -1.2300915e-04 
 7.7732000e-09  6.0108162e-01  7.7732000e-09  6.2000000e-01  7.7732000e-09 -1.2323335e-04 
 7.8732000e-09  6.0113924e-01  7.8732000e-09  6.2000000e-01  7.8732000e-09 -1.2322259e-04 
 7.9732000e-09  6.0119787e-01  7.9732000e-09  6.2000000e-01  7.9732000e-09 -1.2344407e-04 
 8.0732000e-09  6.0125749e-01  8.0732000e-09  6.2000000e-01  8.0732000e-09 -1.2343120e-04 
 8.1732000e-09  6.0131809e-01  8.1732000e-09  6.2000000e-01  8.1732000e-09 -1.2364996e-04 
 8.2732000e-09  6.0137967e-01  8.2732000e-09  6.2000000e-01  8.2732000e-09 -1.2363497e-04 
 8.3732000e-09  6.0144220e-01  8.3732000e-09  6.2000000e-01  8.3732000e-09 -1.2385100e-04 
 8.4732000e-09  6.0150568e-01  8.4732000e-09  6.2000000e-01  8.4732000e-09 -1.2383389e-04 
 8.5732000e-09  6.0157009e-01  8.5732000e-09  6.2000000e-01  8.5732000e-09 -1.2404719e-04 
 8.6732000e-09  6.0163541e-01  8.6732000e-09  6.2000000e-01  8.6732000e-09 -1.2402795e-04 
 8.7732000e-09  6.0170165e-01  8.7732000e-09  6.2000000e-01  8.7732000e-09 -1.2423851e-04 
 8.8732000e-09  6.0176878e-01  8.8732000e-09  6.2000000e-01  8.8732000e-09 -1.2421714e-04 
 8.9732000e-09  6.0183679e-01  8.9732000e-09  6.2000000e-01  8.9732000e-09 -1.2442496e-04 
 9.0732000e-09  6.0190568e-01  9.0732000e-09  6.2000000e-01  9.0732000e-09 -1.2440146e-04 
 9.1732000e-09  6.0197542e-01  9.1732000e-09  6.2000000e-01  9.1732000e-09 -1.2460655e-04 
 9.2732000e-09  6.0204601e-01  9.2732000e-09  6.2000000e-01  9.2732000e-09 -1.2458091e-04 
 9.3732000e-09  6.0211743e-01  9.3732000e-09  6.2000000e-01  9.3732000e-09 -1.2478326e-04 
 9.4732000e-09  6.0218967e-01  9.4732000e-09  6.2000000e-01  9.4732000e-09 -1.2475549e-04 
 9.5732000e-09  6.0226271e-01  9.5732000e-09  6.2000000e-01  9.5732000e-09 -1.2495512e-04 
 9.6732000e-09  6.0233656e-01  9.6732000e-09  6.2000000e-01  9.6732000e-09 -1.2492521e-04 
 9.7732000e-09  6.0241119e-01  9.7732000e-09  6.2000000e-01  9.7732000e-09 -1.2512211e-04 
 9.8732000e-09  6.0248658e-01  9.8732000e-09  6.2000000e-01  9.8732000e-09 -1.2509008e-04 
 9.9732000e-09  6.0256274e-01  9.9732000e-09  6.2000000e-01  9.9732000e-09 -1.2528426e-04 
 1.0073200e-08  6.0263964e-01  1.0073200e-08  6.2000000e-01  1.0073200e-08 -1.2525011e-04 
 1.0173200e-08  6.0271728e-01  1.0173200e-08  6.2000000e-01  1.0173200e-08 -1.2544158e-04 
 1.0273200e-08  6.0279564e-01  1.0273200e-08  6.2000000e-01  1.0273200e-08 -1.2540530e-04 
 1.0373200e-08  6.0287471e-01  1.0373200e-08  6.2000000e-01  1.0373200e-08 -1.2559407e-04 
 1.0473200e-08  6.0295448e-01  1.0473200e-08  6.2000000e-01  1.0473200e-08 -1.2555569e-04 
 1.0573200e-08  6.0303493e-01  1.0573200e-08  6.2000000e-01  1.0573200e-08 -1.2574177e-04 
 1.0673200e-08  6.0311606e-01  1.0673200e-08  6.2000000e-01  1.0673200e-08 -1.2570128e-04 
 1.0773200e-08  6.0319785e-01  1.0773200e-08  6.2000000e-01  1.0773200e-08 -1.2588468e-04 
 1.0873200e-08  6.0328028e-01  1.0873200e-08  6.2000000e-01  1.0873200e-08 -1.2584210e-04 
 1.0973200e-08  6.0336336e-01  1.0973200e-08  6.2000000e-01  1.0973200e-08 -1.2602283e-04 
 1.1073200e-08  6.0344706e-01  1.1073200e-08  6.2000000e-01  1.1073200e-08 -1.2597818e-04 
 1.1173200e-08  6.0353137e-01  1.1173200e-08  6.2000000e-01  1.1173200e-08 -1.2615624e-04 
 1.1273200e-08  6.0361628e-01  1.1273200e-08  6.2000000e-01  1.1273200e-08 -1.2610952e-04 
 1.1373200e-08  6.0370178e-01  1.1373200e-08  6.2000000e-01  1.1373200e-08 -1.2628495e-04 
 1.1473200e-08  6.0378786e-01  1.1473200e-08  6.2000000e-01  1.1473200e-08 -1.2623617e-04 
 1.1573200e-08  6.0387451e-01  1.1573200e-08  6.2000000e-01  1.1573200e-08 -1.2640897e-04 
 1.1673200e-08  6.0396171e-01  1.1673200e-08  6.2000000e-01  1.1673200e-08 -1.2635815e-04 
 1.1773200e-08  6.0404945e-01  1.1773200e-08  6.2000000e-01  1.1773200e-08 -1.2652834e-04 
 1.1873200e-08  6.0413773e-01  1.1873200e-08  6.2000000e-01  1.1873200e-08 -1.2647550e-04 
 1.1973200e-08  6.0422652e-01  1.1973200e-08  6.2000000e-01  1.1973200e-08 -1.2664310e-04 
 1.2073200e-08  6.0431582e-01  1.2073200e-08  6.2000000e-01  1.2073200e-08 -1.2658824e-04 
 1.2173200e-08  6.0440562e-01  1.2173200e-08  6.2000000e-01  1.2173200e-08 -1.2675326e-04 
 1.2273200e-08  6.0449590e-01  1.2273200e-08  6.2000000e-01  1.2273200e-08 -1.2669642e-04 
 1.2373200e-08  6.0458665e-01  1.2373200e-08  6.2000000e-01  1.2373200e-08 -1.2685889e-04 
 1.2473200e-08  6.0467787e-01  1.2473200e-08  6.2000000e-01  1.2473200e-08 -1.2680007e-04 
 1.2573200e-08  6.0476953e-01  1.2573200e-08  6.2000000e-01  1.2573200e-08 -1.2696000e-04 
 1.2673200e-08  6.0486164e-01  1.2673200e-08  6.2000000e-01  1.2673200e-08 -1.2689922e-04 
 1.2773200e-08  6.0495417e-01  1.2773200e-08  6.2000000e-01  1.2773200e-08 -1.2705663e-04 
 1.2873200e-08  6.0504712e-01  1.2873200e-08  6.2000000e-01  1.2873200e-08 -1.2699392e-04 
 1.2973200e-08  6.0514047e-01  1.2973200e-08  6.2000000e-01  1.2973200e-08 -1.2714884e-04 
 1.3073200e-08  6.0523423e-01  1.3073200e-08  6.2000000e-01  1.3073200e-08 -1.2708421e-04 
 1.3173200e-08  6.0532836e-01  1.3173200e-08  6.2000000e-01  1.3173200e-08 -1.2723666e-04 
 1.3273200e-08  6.0542287e-01  1.3273200e-08  6.2000000e-01  1.3273200e-08 -1.2717014e-04 
 1.3373200e-08  6.0551774e-01  1.3373200e-08  6.2000000e-01  1.3373200e-08 -1.2732014e-04 
 1.3473200e-08  6.0561296e-01  1.3473200e-08  6.2000000e-01  1.3473200e-08 -1.2725174e-04 
 1.3573200e-08  6.0570852e-01  1.3573200e-08  6.2000000e-01  1.3573200e-08 -1.2739932e-04 
 1.3673200e-08  6.0580441e-01  1.3673200e-08  6.2000000e-01  1.3673200e-08 -1.2732907e-04 
 1.3773200e-08  6.0590062e-01  1.3773200e-08  6.2000000e-01  1.3773200e-08 -1.2747424e-04 
 1.3873200e-08  6.0599714e-01  1.3873200e-08  6.2000000e-01  1.3873200e-08 -1.2740216e-04 
 1.3973200e-08  6.0609395e-01  1.3973200e-08  6.2000000e-01  1.3973200e-08 -1.2754496e-04 
 1.4073200e-08  6.0619106e-01  1.4073200e-08  6.2000000e-01  1.4073200e-08 -1.2747108e-04 
 1.4173200e-08  6.0628844e-01  1.4173200e-08  6.2000000e-01  1.4173200e-08 -1.2761153e-04 
 1.4273200e-08  6.0638609e-01  1.4273200e-08  6.2000000e-01  1.4273200e-08 -1.2753586e-04 
 1.4373200e-08  6.0648400e-01  1.4373200e-08  6.2000000e-01  1.4373200e-08 -1.2767399e-04 
 1.4473200e-08  6.0658215e-01  1.4473200e-08  6.2000000e-01  1.4473200e-08 -1.2759656e-04 
 1.4573200e-08  6.0668054e-01  1.4573200e-08  6.2000000e-01  1.4573200e-08 -1.2773239e-04 
 1.4673200e-08  6.0677916e-01  1.4673200e-08  6.2000000e-01  1.4673200e-08 -1.2765323e-04 
 1.4773200e-08  6.0687799e-01  1.4773200e-08  6.2000000e-01  1.4773200e-08 -1.2778679e-04 
 1.4873200e-08  6.0697703e-01  1.4873200e-08  6.2000000e-01  1.4873200e-08 -1.2770592e-04 
 1.4973200e-08  6.0707627e-01  1.4973200e-08  6.2000000e-01  1.4973200e-08 -1.2783724e-04 
 1.5073200e-08  6.0717570e-01  1.5073200e-08  6.2000000e-01  1.5073200e-08 -1.2775469e-04 
 1.5173200e-08  6.0727530e-01  1.5173200e-08  6.2000000e-01  1.5173200e-08 -1.2788379e-04 
 1.5273200e-08  6.0737507e-01  1.5273200e-08  6.2000000e-01  1.5273200e-08 -1.2779959e-04 
 1.5373200e-08  6.0747500e-01  1.5373200e-08  6.2000000e-01  1.5373200e-08 -1.2792650e-04 
 1.5473200e-08  6.0757508e-01  1.5473200e-08  6.2000000e-01  1.5473200e-08 -1.2784067e-04 
 1.5573200e-08  6.0767530e-01  1.5573200e-08  6.2000000e-01  1.5573200e-08 -1.2796542e-04 
 1.5673200e-08  6.0777565e-01  1.5673200e-08  6.2000000e-01  1.5673200e-08 -1.2787799e-04 
 1.5773200e-08  6.0787612e-01  1.5773200e-08  6.2000000e-01  1.5773200e-08 -1.2800061e-04 
 1.5873200e-08  6.0797671e-01  1.5873200e-08  6.2000000e-01  1.5873200e-08 -1.2791160e-04 
 1.5973200e-08  6.0807740e-01  1.5973200e-08  6.2000000e-01  1.5973200e-08 -1.2803213e-04 
 1.6073200e-08  6.0817818e-01  1.6073200e-08  6.2000000e-01  1.6073200e-08 -1.2794157e-04 
 1.6173200e-08  6.0827905e-01  1.6173200e-08  6.2000000e-01  1.6173200e-08 -1.2806003e-04 
 1.6273200e-08  6.0837999e-01  1.6273200e-08  6.2000000e-01  1.6273200e-08 -1.2796795e-04 
 1.6373200e-08  6.0848100e-01  1.6373200e-08  6.2000000e-01  1.6373200e-08 -1.2808436e-04 
 1.6473200e-08  6.0858207e-01  1.6473200e-08  6.2000000e-01  1.6473200e-08 -1.2799080e-04 
 1.6573200e-08  6.0868319e-01  1.6573200e-08  6.2000000e-01  1.6573200e-08 -1.2810519e-04 
 1.6673200e-08  6.0878436e-01  1.6673200e-08  6.2000000e-01  1.6673200e-08 -1.2801017e-04 
 1.6773200e-08  6.0888555e-01  1.6773200e-08  6.2000000e-01  1.6773200e-08 -1.2812258e-04 
 1.6873200e-08  6.0898678e-01  1.6873200e-08  6.2000000e-01  1.6873200e-08 -1.2802612e-04 
 1.6973200e-08  6.0908801e-01  1.6973200e-08  6.2000000e-01  1.6973200e-08 -1.2813658e-04 
 1.7073200e-08  6.0918926e-01  1.7073200e-08  6.2000000e-01  1.7073200e-08 -1.2803872e-04 
 1.7173200e-08  6.0929051e-01  1.7173200e-08  6.2000000e-01  1.7173200e-08 -1.2814726e-04 
 1.7273200e-08  6.0939175e-01  1.7273200e-08  6.2000000e-01  1.7273200e-08 -1.2804801e-04 
 1.7373200e-08  6.0949297e-01  1.7373200e-08  6.2000000e-01  1.7373200e-08 -1.2815466e-04 
 1.7473200e-08  6.0959417e-01  1.7473200e-08  6.2000000e-01  1.7473200e-08 -1.2805407e-04 
 1.7573200e-08  6.0969534e-01  1.7573200e-08  6.2000000e-01  1.7573200e-08 -1.2815886e-04 
 1.7673200e-08  6.0979647e-01  1.7673200e-08  6.2000000e-01  1.7673200e-08 -1.2805695e-04 
 1.7773200e-08  6.0989755e-01  1.7773200e-08  6.2000000e-01  1.7773200e-08 -1.2815991e-04 
 1.7873200e-08  6.0999858e-01  1.7873200e-08  6.2000000e-01  1.7873200e-08 -1.2805670e-04 
 1.7973200e-08  6.1009955e-01  1.7973200e-08  6.2000000e-01  1.7973200e-08 -1.2815786e-04 
 1.8073200e-08  6.1020045e-01  1.8073200e-08  6.2000000e-01  1.8073200e-08 -1.2805340e-04 
 1.8173200e-08  6.1030127e-01  1.8173200e-08  6.2000000e-01  1.8173200e-08 -1.2815279e-04 
 1.8273200e-08  6.1040200e-01  1.8273200e-08  6.2000000e-01  1.8273200e-08 -1.2804710e-04 
 1.8373200e-08  6.1050265e-01  1.8373200e-08  6.2000000e-01  1.8373200e-08 -1.2814475e-04 
 1.8473200e-08  6.1060319e-01  1.8473200e-08  6.2000000e-01  1.8473200e-08 -1.2803785e-04 
 1.8573200e-08  6.1070363e-01  1.8573200e-08  6.2000000e-01  1.8573200e-08 -1.2813379e-04 
 1.8673200e-08  6.1080396e-01  1.8673200e-08  6.2000000e-01  1.8673200e-08 -1.2802572e-04 
 1.8773200e-08  6.1090417e-01  1.8773200e-08  6.2000000e-01  1.8773200e-08 -1.2811999e-04 
 1.8873200e-08  6.1100425e-01  1.8873200e-08  6.2000000e-01  1.8873200e-08 -1.2801077e-04 
 1.8973200e-08  6.1110420e-01  1.8973200e-08  6.2000000e-01  1.8973200e-08 -1.2810339e-04 
 1.9073200e-08  6.1120401e-01  1.9073200e-08  6.2000000e-01  1.9073200e-08 -1.2799306e-04 
 1.9173200e-08  6.1130367e-01  1.9173200e-08  6.2000000e-01  1.9173200e-08 -1.2808407e-04 
 1.9273200e-08  6.1140318e-01  1.9273200e-08  6.2000000e-01  1.9273200e-08 -1.2797264e-04 
 1.9373200e-08  6.1150253e-01  1.9373200e-08  6.2000000e-01  1.9373200e-08 -1.2806207e-04 
 1.9473200e-08  6.1160172e-01  1.9473200e-08  6.2000000e-01  1.9473200e-08 -1.2794959e-04 
 1.9573200e-08  6.1170073e-01  1.9573200e-08  6.2000000e-01  1.9573200e-08 -1.2803745e-04 
 1.9673200e-08  6.1179956e-01  1.9673200e-08  6.2000000e-01  1.9673200e-08 -1.2792394e-04 
 1.9773200e-08  6.1189821e-01  1.9773200e-08  6.2000000e-01  1.9773200e-08 -1.2801028e-04 
 1.9873200e-08  6.1199667e-01  1.9873200e-08  6.2000000e-01  1.9873200e-08 -1.2789578e-04 
 1.9973200e-08  6.1209493e-01  1.9973200e-08  6.2000000e-01  1.9973200e-08 -1.2798062e-04 
 2.0073200e-08  6.1219299e-01  2.0073200e-08  6.2000000e-01  2.0073200e-08 -1.2786514e-04 
 2.0173200e-08  6.1229084e-01  2.0173200e-08  6.2000000e-01  2.0173200e-08 -1.2794852e-04 
 2.0273200e-08  6.1238848e-01  2.0273200e-08  6.2000000e-01  2.0273200e-08 -1.2783210e-04 
