 frequency      v(net6)        v(net6)       
 1.0000000e+00  3.5701170e+02 -1.3416939e-02 
 1.2589254e+00  3.5701170e+02 -1.6890925e-02 
 1.5848932e+00  3.5701170e+02 -2.1264415e-02 
 1.9952623e+00  3.5701170e+02 -2.6770312e-02 
 2.5118864e+00  3.5701170e+02 -3.3701826e-02 
 3.1622777e+00  3.5701170e+02 -4.2428085e-02 
 3.9810717e+00  3.5701169e+02 -5.3413794e-02 
 5.0118723e+00  3.5701169e+02 -6.7243981e-02 
 6.3095734e+00  3.5701168e+02 -8.4655155e-02 
 7.9432823e+00  3.5701167e+02 -1.0657452e-01 
 1.0000000e+01  3.5701165e+02 -1.3416937e-01 
 1.2589254e+01  3.5701162e+02 -1.6890921e-01 
 1.5848932e+01  3.5701157e+02 -2.1264407e-01 
 1.9952623e+01  3.5701150e+02 -2.6770297e-01 
 2.5118864e+01  3.5701138e+02 -3.3701796e-01 
 3.1622777e+01  3.5701120e+02 -4.2428026e-01 
 3.9810717e+01  3.5701090e+02 -5.3413676e-01 
 5.0118723e+01  3.5701044e+02 -6.7243746e-01 
 6.3095734e+01  3.5700970e+02 -8.4654685e-01 
 7.9432823e+01  3.5700852e+02 -1.0657359e+00 
 1.0000000e+02  3.5700667e+02 -1.3416750e+00 
 1.2589254e+02  3.5700372e+02 -1.6890548e+00 
 1.5848932e+02  3.5699905e+02 -2.1263663e+00 
 1.9952623e+02  3.5699166e+02 -2.6768811e+00 
 2.5118864e+02  3.5697993e+02 -3.3698832e+00 
 3.1622777e+02  3.5696136e+02 -4.2422111e+00 
 3.9810717e+02  3.5693192e+02 -5.3401875e+00 
 5.0118723e+02  3.5688527e+02 -6.7220203e+00 
 6.3095734e+02  3.5681136e+02 -8.4607722e+00 
 7.9432823e+02  3.5669429e+02 -1.0647991e+01 
 1.0000000e+03  3.5650889e+02 -1.3398069e+01 
 1.2589254e+03  3.5621546e+02 -1.6853306e+01 
 1.5848932e+03  3.5575139e+02 -2.1189453e+01 
 1.9952623e+03  3.5501835e+02 -2.6621052e+01 
 2.5118864e+03  3.5386272e+02 -3.3404982e+01 
 3.1622777e+03  3.5204648e+02 -4.1838839e+01 
 3.9810717e+03  3.4920576e+02 -5.2247566e+01 
 5.0118723e+03  3.4479612e+02 -6.4946393e+01 
 6.3095734e+03  3.3803064e+02 -8.0160684e+01 
 7.9432823e+03  3.2783477e+02 -9.7876957e+01 
 1.0000000e+04  3.1287611e+02 -1.1760606e+02 
 1.2589254e+04  2.9177216e+02 -1.3808664e+02 
 1.5848932e+04  2.6358550e+02 -1.5707583e+02 
 1.9952623e+04  2.2857240e+02 -1.7152938e+02 
 2.5118864e+04  1.8879563e+02 -1.7844643e+02 
 3.1622777e+04  1.4794294e+02 -1.7616890e+02 
 3.9810717e+04  1.1010927e+02 -1.6525896e+02 
 5.0118723e+04  7.8284212e+01 -1.4818994e+02 
 6.3095734e+04  5.3608854e+01 -1.2813194e+02 
 7.9432823e+04  3.5658795e+01 -1.0779985e+02 
 1.0000000e+05  2.3197863e+01 -8.8948236e+01 
 1.2589254e+05  1.4825843e+01 -7.2425325e+01 
 1.5848932e+05  9.3239126e+00 -5.8453501e+01 
 1.9952623e+05  5.7604654e+00 -4.6905889e+01 
 2.5118864e+05  3.4742624e+00 -3.7499594e+01 
 3.1622777e+05  2.0164026e+00 -2.9907814e+01 
 3.9810717e+05  1.0903729e+00 -2.3816064e+01 
 5.0118723e+05  5.0362999e-01 -1.8945771e+01 
 6.3095734e+05  1.3247494e-01 -1.5060813e+01 
 7.9432823e+05 -1.0202488e-01 -1.1966034e+01 
 1.0000000e+06 -2.5001438e-01 -9.5025332e+00 
 1.2589254e+06 -3.4324906e-01 -7.5420950e+00 
 1.5848932e+06 -4.0177925e-01 -5.9818176e+00 
 1.9952623e+06 -4.3821048e-01 -4.7393755e+00 
 2.5118864e+06 -4.6039878e-01 -3.7490127e+00 
 3.1622777e+06 -4.7313931e-01 -2.9582429e+00 
 3.9810717e+06 -4.7920638e-01 -2.3251786e+00 
 5.0118723e+06 -4.7997297e-01 -1.8164051e+00 
 6.3095734e+06 -4.7575957e-01 -1.4053306e+00 
 7.9432823e+06 -4.6602511e-01 -1.0709660e+00 
 1.0000000e+07 -4.4951542e-01 -7.9710112e-01 
 1.2589254e+07 -4.2452434e-01 -5.7182801e-01 
 1.5848932e+07 -3.8946036e-01 -3.8725019e-01 
 1.9952623e+07 -3.4382592e-01 -2.3901038e-01 
 2.5118864e+07 -2.8933854e-01 -1.2512544e-01 
 3.1622777e+07 -2.3036754e-01 -4.3972504e-02 
 3.9810717e+07 -1.7288114e-01  7.7531003e-03 
 5.0118723e+07 -1.2226719e-01  3.5720502e-02 
 6.3095734e+07 -8.1566997e-02  4.6879299e-02 
 7.9432823e+07 -5.1206004e-02  4.7719204e-02 
 1.0000000e+08 -2.9879756e-02  4.3155735e-02 
 1.2589254e+08 -1.5638944e-02  3.6360440e-02 
 1.5848932e+08 -6.6019850e-03  2.9142422e-02 
 1.9952623e+08 -1.2393379e-03  2.2440071e-02 
 2.5118864e+08  1.6098360e-03  1.6699719e-02 
 3.1622777e+08  2.8227926e-03  1.2092803e-02 
 3.9810717e+08  3.0706059e-03  8.6115264e-03 
 5.0118723e+08  2.8473238e-03  6.1167133e-03 
 6.3095734e+08  2.4737340e-03  4.3936157e-03 
 7.9432823e+08  2.1171169e-03  3.2186176e-03 
 1.0000000e+09  1.8371812e-03  2.4081344e-03 
 1.2589254e+09  1.6374174e-03  1.8341187e-03 
 1.5848932e+09  1.5015875e-03  1.4155247e-03 
 1.9952623e+09  1.4114950e-03  1.1026703e-03 
 2.5118864e+09  1.3525888e-03  8.6450730e-04 
 3.1622777e+09  1.3144521e-03  6.8078720e-04 
 3.9810717e+09  1.2899466e-03  5.3772162e-04 
 5.0118723e+09  1.2742894e-03  4.2557496e-04 
 6.3095734e+09  1.2643270e-03  3.3726564e-04 
 7.9432823e+09  1.2580063e-03  2.6751584e-04 
 1.0000000e+10  1.2540040e-03  2.1231597e-04 
